time,V(n010),V(n011),V(n014),I(Rchip2)
0.000000000000000e+000,3.300000e+000,1.953492e-002,0.000000e+000,-2.256283e-038
9.999999824516700e-015,3.300000e+000,1.953492e-002,1.100000e-005,-1.480114e-013
1.999999964903340e-014,3.300000e+000,1.953492e-002,2.200000e-005,-3.947927e-013
3.999999929806680e-014,3.300000e+000,1.953492e-002,4.400000e-005,-1.302831e-012
7.999999859613360e-014,3.300000e+000,1.953492e-002,8.800000e-005,-4.855190e-012
1.599999971922672e-013,3.300000e+000,1.953492e-002,1.760000e-004,-1.906056e-011
3.199999943845344e-013,3.300000e+000,1.953492e-002,3.520000e-004,-7.585367e-011
6.399999887690688e-013,3.300000e+000,1.953492e-002,7.040000e-004,-3.028252e-010
1.279999977538138e-012,3.300000e+000,1.953493e-002,1.408000e-003,-1.209345e-009
2.559999955076275e-012,3.300000e+000,1.953497e-002,2.816000e-003,-4.826847e-009
5.119999910152551e-012,3.300000e+000,1.953513e-002,5.632000e-003,-1.924686e-008
1.023999982030510e-011,3.300000e+000,1.953569e-002,1.126400e-002,-7.057380e-008
1.637203732580454e-011,3.300000e+000,1.953667e-002,1.800924e-002,-1.589864e-007
1.752421881205525e-011,3.300000e+000,1.953690e-002,1.927664e-002,-1.806222e-007
1.982858178455667e-011,3.300000e+000,1.953746e-002,2.181144e-002,-2.305987e-007
2.083674058502605e-011,3.300000e+000,1.953772e-002,2.292041e-002,-2.541949e-007
2.146037006623157e-011,3.300000e+000,1.953788e-002,2.360641e-002,-2.694552e-007
2.146058103696269e-011,3.300000e+000,1.953788e-002,2.360664e-002,-2.694604e-007
2.146061619875122e-011,3.300000e+000,1.953788e-002,2.360668e-002,-2.694613e-007
2.146068652232826e-011,3.300000e+000,1.953788e-002,2.360675e-002,-2.694630e-007
2.146070410322252e-011,3.300000e+000,1.953788e-002,2.360678e-002,-2.694635e-007
2.146070849844608e-011,3.300000e+000,1.953788e-002,2.360678e-002,-2.694636e-007
2.146071728889321e-011,3.300000e+000,1.953788e-002,2.360679e-002,-2.694638e-007
2.146071948650499e-011,3.300000e+000,1.953788e-002,2.360679e-002,-2.694639e-007
2.146072388172856e-011,3.300000e+000,1.953788e-002,2.360680e-002,-2.694640e-007
2.146072498053445e-011,3.300000e+000,1.953788e-002,2.360680e-002,-2.694643e-007
1.021460724980535e-009,3.300000e+000,2.836782e-002,1.123607e+000,-6.083884e-004
2.021460724980534e-009,3.300000e+000,4.039404e-002,2.223607e+000,-1.351182e-003
3.000000000000000e-009,3.300000e+000,5.500215e-002,3.300000e+000,-2.178311e-003
3.000195312500000e-009,3.300000e+000,5.500524e-002,3.300000e+000,-2.178481e-003
3.000225830078125e-009,3.300000e+000,5.500573e-002,3.300000e+000,-2.178508e-003
3.000233459472656e-009,3.300000e+000,5.500584e-002,3.300000e+000,-2.178515e-003
3.000235366821289e-009,3.300000e+000,5.500588e-002,3.300000e+000,-2.178516e-003
3.000239181518555e-009,3.300000e+000,5.500594e-002,3.300000e+000,-2.178519e-003
3.000246810913086e-009,3.300000e+000,5.500606e-002,3.300000e+000,-2.178526e-003
3.000262069702148e-009,3.300000e+000,5.500630e-002,3.300000e+000,-2.178540e-003
3.000292587280274e-009,3.300000e+000,5.500679e-002,3.300000e+000,-2.178567e-003
3.000353622436524e-009,3.300000e+000,5.500776e-002,3.300000e+000,-2.178620e-003
3.000475692749024e-009,3.300000e+000,5.500970e-002,3.300000e+000,-2.178727e-003
3.000719833374024e-009,3.300000e+000,5.501357e-002,3.300000e+000,-2.178941e-003
3.001208114624024e-009,3.300000e+000,5.502133e-002,3.300000e+000,-2.179368e-003
3.002184677124024e-009,3.300000e+000,5.503681e-002,3.300000e+000,-2.180221e-003
3.002428817749024e-009,3.300000e+000,5.504068e-002,3.300000e+000,-2.180434e-003
3.002917098999024e-009,3.300000e+000,5.504841e-002,3.300000e+000,-2.180860e-003
3.003893661499024e-009,3.300000e+000,5.506387e-002,3.300000e+000,-2.181709e-003
3.004626083374024e-009,3.300000e+000,5.507546e-002,3.300000e+000,-2.182346e-003
3.004748153686523e-009,3.300000e+000,5.507739e-002,3.300000e+000,-2.182452e-003
3.004992294311524e-009,3.300000e+000,5.508124e-002,3.300000e+000,-2.182664e-003
3.005480575561523e-009,3.300000e+000,5.508896e-002,3.300000e+000,-2.183087e-003
3.005602645874023e-009,3.300000e+000,5.509089e-002,3.300000e+000,-2.183193e-003
3.005846786499023e-009,3.300000e+000,5.509475e-002,3.300000e+000,-2.183405e-003
3.006335067749023e-009,3.300000e+000,5.510246e-002,3.300000e+000,-2.183828e-003
3.006457138061523e-009,3.300000e+000,5.510439e-002,3.300000e+000,-2.183934e-003
3.006701278686523e-009,3.300000e+000,5.510824e-002,3.300000e+000,-2.184145e-003
3.007189559936523e-009,3.300000e+000,5.511595e-002,3.300000e+000,-2.184568e-003
3.007311630249023e-009,3.300000e+000,5.511787e-002,3.300000e+000,-2.184673e-003
3.007555770874023e-009,3.300000e+000,5.512172e-002,3.300000e+000,-2.184884e-003
3.008044052124023e-009,3.300000e+000,5.512943e-002,3.300000e+000,-2.185306e-003
3.008166122436523e-009,3.300000e+000,5.513135e-002,3.300000e+000,-2.185412e-003
3.008410263061523e-009,3.300000e+000,5.513520e-002,3.300000e+000,-2.185623e-003
3.008471298217773e-009,3.300000e+000,5.513616e-002,3.300000e+000,-2.185675e-003
3.008593368530273e-009,3.300000e+000,5.513809e-002,3.300000e+000,-2.185781e-003
3.008837509155273e-009,3.300000e+000,5.514194e-002,3.300000e+000,-2.185991e-003
3.009020614624023e-009,3.300000e+000,5.514482e-002,3.300000e+000,-2.186150e-003
3.009264755249023e-009,3.300000e+000,5.514867e-002,3.300000e+000,-2.186360e-003
3.009325790405273e-009,3.300000e+000,5.514963e-002,3.300000e+000,-2.186413e-003
3.009447860717773e-009,3.300000e+000,5.515156e-002,3.300000e+000,-2.186518e-003
3.009692001342773e-009,3.300000e+000,5.515540e-002,3.300000e+000,-2.186729e-003
3.009753036499023e-009,3.300000e+000,5.515637e-002,3.300000e+000,-2.186781e-003
3.009875106811523e-009,3.300000e+000,5.515829e-002,3.300000e+000,-2.186887e-003
3.010119247436523e-009,3.300000e+000,5.516214e-002,3.300000e+000,-2.187097e-003
3.010180282592773e-009,3.300000e+000,5.516310e-002,3.300000e+000,-2.187150e-003
3.010302352905273e-009,3.300000e+000,5.516502e-002,3.300000e+000,-2.187255e-003
3.010546493530273e-009,3.300000e+000,5.516886e-002,3.300000e+000,-2.187465e-003
3.010607528686523e-009,3.300000e+000,5.516982e-002,3.300000e+000,-2.187518e-003
3.010729598999023e-009,3.300000e+000,5.517175e-002,3.300000e+000,-2.187623e-003
3.010973739624023e-009,3.300000e+000,5.517559e-002,3.300000e+000,-2.187833e-003
3.011034774780274e-009,3.300000e+000,5.517655e-002,3.300000e+000,-2.187886e-003
3.011156845092773e-009,3.300000e+000,5.517847e-002,3.300000e+000,-2.187991e-003
3.011400985717774e-009,3.300000e+000,5.518232e-002,3.300000e+000,-2.188201e-003
3.011889266967773e-009,3.300000e+000,5.519000e-002,3.300000e+000,-2.188621e-003
3.012865829467773e-009,3.300000e+000,5.520536e-002,3.300000e+000,-2.189460e-003
3.014818954467774e-009,3.300000e+000,5.523605e-002,3.300000e+000,-2.191134e-003
3.018725204467773e-009,3.300000e+000,5.529729e-002,3.300000e+000,-2.194467e-003
3.026537704467774e-009,3.300000e+000,5.541927e-002,3.300000e+000,-2.201075e-003
3.042162704467774e-009,3.300000e+000,5.566122e-002,3.300000e+000,-2.214058e-003
3.073412704467773e-009,3.300000e+000,5.613738e-002,3.300000e+000,-2.239130e-003
3.135912704467774e-009,3.300000e+000,5.706061e-002,3.300000e+000,-2.285914e-003
3.260912704467773e-009,3.300000e+000,5.880446e-002,3.300000e+000,-2.367654e-003
3.510912704467774e-009,3.300000e+000,6.196724e-002,3.300000e+000,-2.493855e-003
4.010912704467774e-009,3.300000e+000,6.747131e-002,3.300000e+000,-2.652968e-003
4.848591229567822e-009,3.300000e+000,7.542983e-002,3.300000e+000,-2.779021e-003
5.744589178381569e-009,3.300000e+000,8.298957e-002,3.300000e+000,-2.812928e-003
6.744589178381569e-009,3.300000e+000,9.082274e-002,3.300000e+000,-2.794184e-003
7.744589178381569e-009,3.300000e+000,9.836373e-002,3.300000e+000,-2.756238e-003
8.744589178381570e-009,3.300000e+000,1.057194e-001,3.300000e+000,-2.712140e-003
9.744589178381571e-009,3.300000e+000,1.129050e-001,3.300000e+000,-2.664533e-003
1.074458917838157e-008,3.300000e+000,1.198417e-001,3.300000e+000,-2.607891e-003
1.174458917838157e-008,3.300000e+000,1.262795e-001,3.300000e+000,-2.524180e-003
1.274458917838157e-008,3.300000e+000,1.315773e-001,3.300000e+000,-2.368096e-003
1.374458917838157e-008,3.300000e+000,1.343361e-001,3.300000e+000,-2.043806e-003
1.474458917838157e-008,3.300000e+000,1.324649e-001,3.300000e+000,-1.416554e-003
1.562985266139501e-008,3.300000e+000,1.245966e-001,3.300000e+000,-4.810755e-004
1.657087753653290e-008,3.300000e+000,1.090667e-001,3.300000e+000,8.928837e-004
1.733991726376914e-008,3.300000e+000,9.203949e-002,3.300000e+000,2.162701e-003
1.794025846085800e-008,3.300000e+000,7.741737e-002,3.300000e+000,3.089312e-003
1.859121540723536e-008,3.300000e+000,6.250581e-002,3.300000e+000,3.850515e-003
1.930589715879659e-008,3.300000e+000,4.907953e-002,3.300000e+000,4.304176e-003
2.030589715879659e-008,3.300000e+000,3.526328e-002,3.300000e+000,4.417136e-003
2.130589715879659e-008,3.300000e+000,2.577057e-002,3.300000e+000,4.161853e-003
2.230589715879659e-008,3.300000e+000,1.945378e-002,3.300000e+000,3.710021e-003
2.330589715879659e-008,3.300000e+000,1.512496e-002,3.300000e+000,3.202513e-003
2.430589715879659e-008,3.300000e+000,1.207080e-002,3.300000e+000,2.709538e-003
2.530589715879658e-008,3.300000e+000,9.859412e-003,3.300000e+000,2.262478e-003
2.630589715879658e-008,3.300000e+000,8.221921e-003,3.300000e+000,1.872370e-003
2.730589715879658e-008,3.300000e+000,6.984991e-003,3.300000e+000,1.540019e-003
2.830589715879658e-008,3.300000e+000,6.034404e-003,3.300000e+000,1.261290e-003
2.930589715879658e-008,3.300000e+000,5.292613e-003,3.300000e+000,1.030052e-003
3.030589715879658e-008,3.300000e+000,4.705520e-003,3.300000e+000,8.397042e-004
3.130589715879658e-008,3.300000e+000,4.234692e-003,3.300000e+000,6.839063e-004
3.230589715879658e-008,3.300000e+000,3.852309e-003,3.300000e+000,5.569274e-004
3.330589715879659e-008,3.300000e+000,3.537960e-003,3.300000e+000,4.537624e-004
3.430589715879659e-008,3.300000e+000,3.276469e-003,3.300000e+000,3.701395e-004
3.530589715879659e-008,3.300000e+000,3.056438e-003,3.300000e+000,3.024686e-004
3.630589715879659e-008,3.300000e+000,2.869217e-003,3.300000e+000,2.477661e-004
3.730589715879660e-008,3.300000e+000,2.708188e-003,3.300000e+000,2.035733e-004
3.830589715879660e-008,3.300000e+000,2.568247e-003,3.300000e+000,1.678768e-004
3.930589715879660e-008,3.300000e+000,2.445430e-003,3.300000e+000,1.390360e-004
4.030589715879660e-008,3.300000e+000,2.336634e-003,3.300000e+000,1.157192e-004
4.130589715879661e-008,3.300000e+000,2.239415e-003,3.300000e+000,9.684887e-005
4.230589715879661e-008,3.300000e+000,2.151836e-003,3.300000e+000,8.155545e-005
4.330589715879661e-008,3.300000e+000,2.072350e-003,3.300000e+000,6.913827e-005
4.430589715879661e-008,3.300000e+000,1.999716e-003,3.300000e+000,5.903389e-005
4.530589715879661e-008,3.300000e+000,1.932928e-003,3.300000e+000,5.078965e-005
4.630589715879662e-008,3.300000e+000,1.871171e-003,3.300000e+000,4.404226e-005
4.730589715879662e-008,3.300000e+000,1.813775e-003,3.300000e+000,3.850035e-005
4.830589715879662e-008,3.300000e+000,1.760187e-003,3.300000e+000,3.393029e-005
4.930589715879662e-008,3.300000e+000,1.709949e-003,3.300000e+000,3.014480e-005
5.030589715879663e-008,3.300000e+000,1.662678e-003,3.300000e+000,2.699375e-005
5.130589715879663e-008,3.300000e+000,1.617876e-003,3.300000e+000,2.432736e-005
5.200000000000000e-008,3.300000e+000,1.588315e-003,3.300000e+000,2.274974e-005
5.300000000000000e-008,3.300000e+000,1.466036e-003,3.300000e+000,2.786091e-005
5.331297423326102e-008,3.300000e+000,1.289173e-003,2.955728e+000,4.137096e-005
5.357050764534210e-008,3.300000e+000,1.029869e-003,2.672441e+000,6.151116e-005
5.386275819736827e-008,3.300000e+000,7.210168e-004,2.350966e+000,8.395223e-005
5.418481975464917e-008,3.300000e+000,3.887432e-004,1.996698e+000,1.061355e-004
5.450598995827785e-008,3.300000e+000,5.685203e-005,1.643411e+000,1.264235e-004
5.494639574825214e-008,3.300000e+000,-3.974326e-004,1.158965e+000,1.514037e-004
5.549366136946917e-008,3.300000e+000,-9.639795e-004,5.569725e-001,1.791900e-004
5.600000000000000e-008,3.300000e+000,-1.490570e-003,0.000000e+000,2.026723e-004
5.600047068035429e-008,3.300000e+000,-1.491059e-003,0.000000e+000,2.026926e-004
5.600141204106287e-008,3.300000e+000,-1.492028e-003,0.000000e+000,2.027309e-004
5.600329476248003e-008,3.300000e+000,-1.493923e-003,0.000000e+000,2.028037e-004
5.600706020531435e-008,3.300000e+000,-1.497564e-003,0.000000e+000,2.029355e-004
5.601338067727188e-008,3.300000e+000,-1.503313e-003,0.000000e+000,2.031235e-004
5.602089351292456e-008,3.300000e+000,-1.509543e-003,0.000000e+000,2.032918e-004
5.603319025720233e-008,3.300000e+000,-1.518334e-003,0.000000e+000,2.034389e-004
5.605660772947857e-008,3.300000e+000,-1.531372e-003,0.000000e+000,2.033827e-004
5.610344267403105e-008,3.300000e+000,-1.548314e-003,0.000000e+000,2.024502e-004
5.619711256313600e-008,3.300000e+000,-1.565215e-003,0.000000e+000,1.991160e-004
5.638445234134590e-008,3.300000e+000,-1.578447e-003,0.000000e+000,1.909451e-004
5.675913189776571e-008,3.300000e+000,-1.590944e-003,0.000000e+000,1.748004e-004
5.750849101060533e-008,3.300000e+000,-1.610330e-003,0.000000e+000,1.463688e-004
5.850849101060533e-008,3.300000e+000,-1.632003e-003,0.000000e+000,1.148573e-004
5.950849101060533e-008,3.300000e+000,-1.649373e-003,0.000000e+000,8.976374e-005
6.050849101060533e-008,3.300000e+000,-1.663152e-003,0.000000e+000,7.016880e-005
6.150849101060532e-008,3.300000e+000,-1.674205e-003,0.000000e+000,5.487395e-005
6.250849101060532e-008,3.300000e+000,-1.683239e-003,0.000000e+000,4.294426e-005
6.350849101060531e-008,3.300000e+000,-1.690805e-003,0.000000e+000,3.364780e-005
6.450849101060531e-008,3.300000e+000,-1.697351e-003,0.000000e+000,2.641347e-005
6.550849101060530e-008,3.300000e+000,-1.703233e-003,0.000000e+000,2.079412e-005
6.650849101060530e-008,3.300000e+000,-1.708741e-003,0.000000e+000,1.644080e-005
6.750849101060530e-008,3.300000e+000,-1.714111e-003,0.000000e+000,1.308033e-005
6.850849101060529e-008,3.300000e+000,-1.719538e-003,0.000000e+000,1.049951e-005
6.950849101060529e-008,3.300000e+000,-1.725183e-003,0.000000e+000,8.531494e-006
7.050849101060528e-008,3.300000e+000,-1.731186e-003,0.000000e+000,7.046126e-006
7.150849101060528e-008,3.300000e+000,-1.737666e-003,0.000000e+000,5.941655e-006
7.250849101060527e-008,3.300000e+000,-1.744728e-003,0.000000e+000,5.138785e-006
7.350849101060527e-008,3.300000e+000,-1.752469e-003,0.000000e+000,4.575670e-006
7.450849101060527e-008,3.300000e+000,-1.760979e-003,0.000000e+000,4.204255e-006
7.550849101060526e-008,3.300000e+000,-1.770344e-003,0.000000e+000,3.987243e-006
7.650849101060526e-008,3.300000e+000,-1.780648e-003,0.000000e+000,3.895851e-006
7.750849101060525e-008,3.300000e+000,-1.791977e-003,0.000000e+000,3.907980e-006
7.850849101060525e-008,3.300000e+000,-1.804419e-003,0.000000e+000,4.006847e-006
7.950849101060524e-008,3.300000e+000,-1.818068e-003,0.000000e+000,4.179877e-006
8.050849101060524e-008,3.300000e+000,-1.833020e-003,0.000000e+000,4.417892e-006
8.150849101060524e-008,3.300000e+000,-1.849383e-003,0.000000e+000,4.714451e-006
8.250849101060523e-008,3.300000e+000,-1.867272e-003,0.000000e+000,5.065371e-006
8.350849101060523e-008,3.300000e+000,-1.886815e-003,0.000000e+000,5.468354e-006
8.450849101060522e-008,3.300000e+000,-1.908152e-003,0.000000e+000,5.922730e-006
8.550849101060522e-008,3.300000e+000,-1.931441e-003,0.000000e+000,6.429263e-006
8.650849101060521e-008,3.300000e+000,-1.956858e-003,0.000000e+000,6.990037e-006
8.750849101060521e-008,3.300000e+000,-1.984598e-003,0.000000e+000,7.608395e-006
8.850849101060521e-008,3.300000e+000,-2.014884e-003,0.000000e+000,8.288931e-006
8.950849101060520e-008,3.300000e+000,-2.047968e-003,0.000000e+000,9.037520e-006
9.050849101060520e-008,3.300000e+000,-2.084135e-003,0.000000e+000,9.861403e-006
9.150849101060519e-008,3.300000e+000,-2.123710e-003,0.000000e+000,1.076931e-005
9.250849101060519e-008,3.300000e+000,-2.167062e-003,0.000000e+000,1.177162e-005
9.350849101060518e-008,3.300000e+000,-2.214614e-003,0.000000e+000,1.288058e-005
9.450849101060518e-008,3.300000e+000,-2.266851e-003,0.000000e+000,1.411058e-005
9.550849101060518e-008,3.300000e+000,-2.324330e-003,0.000000e+000,1.547841e-005
9.650849101060517e-008,3.300000e+000,-2.387689e-003,0.000000e+000,1.700373e-005
9.750849101060517e-008,3.300000e+000,-2.457664e-003,0.000000e+000,1.870940e-005
9.850849101060516e-008,3.300000e+000,-2.534007e-003,0.000000e+000,2.059130e-005
9.952644265751994e-008,3.300000e+000,-2.620505e-003,0.000000e+000,2.275604e-005
1.000000000000000e-007,3.300000e+000,-2.664063e-003,0.000000e+000,2.385805e-005
1.000398666639551e-007,3.256147e+000,-2.736538e-003,0.000000e+000,3.011656e-005
1.001195999918654e-007,3.168440e+000,-2.960304e-003,0.000000e+000,4.959361e-005
1.001922029673126e-007,3.088577e+000,-3.266930e-003,0.000000e+000,7.626034e-005
1.002780418238718e-007,2.994154e+000,-3.754256e-003,0.000000e+000,1.180971e-004
1.004497195369901e-007,2.805309e+000,-4.909966e-003,0.000000e+000,2.150970e-004
1.006351442749030e-007,2.601341e+000,-6.288195e-003,0.000000e+000,3.268552e-004
1.008661376260700e-007,2.347249e+000,-8.100318e-003,0.000000e+000,4.677316e-004
1.010440350985996e-007,2.151561e+000,-9.527562e-003,0.000000e+000,5.732868e-004
1.012853637718963e-007,1.886100e+000,-1.149149e-002,0.000000e+000,7.091905e-004
1.017264243197951e-007,1.400933e+000,-1.513507e-002,0.000000e+000,9.415877e-004
1.022222342293750e-007,8.555424e-001,-1.931543e-002,0.000000e+000,1.185772e-003
1.025531276609246e-007,4.915596e-001,-2.216973e-002,0.000000e+000,1.340023e-003
1.026789470535661e-007,3.531582e-001,-2.327594e-002,0.000000e+000,1.396667e-003
1.027511525394342e-007,2.737322e-001,-2.391790e-002,0.000000e+000,1.428604e-003
1.027965716692379e-007,2.237712e-001,-2.432402e-002,0.000000e+000,1.448524e-003
1.028425055695526e-007,1.732439e-001,-2.473658e-002,0.000000e+000,1.468550e-003
1.028984757040398e-007,1.116767e-001,-2.524118e-002,0.000000e+000,1.492842e-003
1.029295657526666e-007,7.747767e-002,-2.552234e-002,0.000000e+000,1.506289e-003
1.029378199027463e-007,6.839811e-002,-2.549679e-002,0.000000e+000,1.500910e-003
1.030621800972537e-007,0.000000e+000,-2.371506e-002,0.000000e+000,1.297061e-003
1.031865402917610e-007,0.000000e+000,-2.306120e-002,0.000000e+000,1.197833e-003
1.041865402917610e-007,0.000000e+000,-2.586893e-002,0.000000e+000,1.148562e-003
1.051865402917610e-007,0.000000e+000,-2.755220e-002,0.000000e+000,1.032433e-003
1.061865402917610e-007,0.000000e+000,-2.800854e-002,0.000000e+000,8.518452e-004
1.071865402917610e-007,0.000000e+000,-2.835694e-002,0.000000e+000,6.980496e-004
1.081865402917610e-007,0.000000e+000,-2.874436e-002,0.000000e+000,5.727899e-004
1.091865402917609e-007,0.000000e+000,-2.900115e-002,0.000000e+000,4.613367e-004
1.101865402917609e-007,0.000000e+000,-2.923370e-002,0.000000e+000,3.736386e-004
1.111865402917609e-007,0.000000e+000,-2.960062e-002,0.000000e+000,3.169736e-004
1.121865402917609e-007,0.000000e+000,-3.019286e-002,0.000000e+000,2.914984e-004
1.131865402917609e-007,0.000000e+000,-3.127988e-002,0.000000e+000,3.116928e-004
1.141865402917609e-007,0.000000e+000,-3.318655e-002,0.000000e+000,3.931501e-004
1.151865402917609e-007,0.000000e+000,-3.581957e-002,0.000000e+000,5.142370e-004
1.161865402917609e-007,0.000000e+000,-3.842511e-002,0.000000e+000,6.051875e-004
1.171865402917609e-007,0.000000e+000,-4.025625e-002,0.000000e+000,6.128806e-004
1.181865402917609e-007,0.000000e+000,-4.118624e-002,0.000000e+000,5.463230e-004
1.191865402917609e-007,0.000000e+000,-4.150252e-002,0.000000e+000,4.457581e-004
1.201865402917609e-007,0.000000e+000,-4.152336e-002,0.000000e+000,3.446257e-004
1.211865402917609e-007,0.000000e+000,-4.147016e-002,0.000000e+000,2.608625e-004
1.221865402917609e-007,0.000000e+000,-4.147111e-002,0.000000e+000,2.007744e-004
1.231865402917609e-007,0.000000e+000,-4.158979e-002,0.000000e+000,1.640120e-004
1.241865402917609e-007,0.000000e+000,-4.185034e-002,0.000000e+000,1.471389e-004
1.251865402917609e-007,0.000000e+000,-4.225629e-002,0.000000e+000,1.458510e-004
1.261865402917609e-007,0.000000e+000,-4.279876e-002,0.000000e+000,1.558397e-004
