time,V(n010),V(n011),V(n014),I(Rchip2)
0.000000000000000e+000,3.300000e+000,3.324124e-002,0.000000e+000,-3.839363e-038
9.999999824516700e-015,3.300000e+000,3.324124e-002,1.100000e-005,-1.959291e-013
1.999999964903340e-014,3.300000e+000,3.324124e-002,2.200000e-005,-5.224569e-013
3.999999929806680e-014,3.300000e+000,3.324124e-002,4.400000e-005,-1.723979e-012
7.999999859613360e-014,3.300000e+000,3.324124e-002,8.800000e-005,-6.424687e-012
1.599999971922672e-013,3.300000e+000,3.324124e-002,1.760000e-004,-2.522100e-011
3.199999943845344e-013,3.300000e+000,3.324124e-002,3.520000e-004,-1.003635e-010
6.399999887690688e-013,3.300000e+000,3.324125e-002,7.040000e-004,-4.006624e-010
1.279999977538138e-012,3.300000e+000,3.324126e-002,1.408000e-003,-1.600243e-009
2.559999955076275e-012,3.300000e+000,3.324131e-002,2.816000e-003,-6.389358e-009
5.119999910152551e-012,3.300000e+000,3.324152e-002,5.632000e-003,-2.548994e-008
1.023999982030510e-011,3.300000e+000,3.324227e-002,1.126400e-002,-9.349089e-008
1.637208618609364e-011,3.300000e+000,3.324364e-002,1.800930e-002,-2.174215e-007
2.061603923265300e-011,3.300000e+000,3.324490e-002,2.267764e-002,-3.323659e-007
2.312646379876185e-011,3.300000e+000,3.324805e-002,2.543911e-002,-6.104576e-007
1.481264637987619e-010,3.300000e+000,3.357154e-002,1.629391e-001,-2.888728e-005
2.731264637987618e-010,3.300000e+000,3.404033e-002,3.004391e-001,-6.924776e-005
3.981264637987618e-010,3.300000e+000,3.464619e-002,4.379391e-001,-1.208374e-004
4.067388289264960e-010,3.300000e+000,3.469154e-002,4.474127e-001,-1.246823e-004
4.411882894374328e-010,3.300000e+000,3.488293e-002,4.853071e-001,-1.408582e-004
4.871209034520152e-010,3.300000e+000,3.516189e-002,5.358330e-001,-1.642847e-004
5.789861314811800e-010,3.300000e+000,3.579427e-002,6.368847e-001,-2.167297e-004
7.627165875395096e-010,3.300000e+000,3.721781e-002,8.389882e-001,-3.332178e-004
8.302781839076487e-010,3.300000e+000,3.779635e-002,9.133060e-001,-3.799170e-004
8.828506895396109e-010,3.300000e+000,3.828411e-002,9.711357e-001,-4.187803e-004
9.517445394159526e-010,3.300000e+000,3.895619e-002,1.046919e+000,-4.717529e-004
1.041410307278558e-009,3.300000e+000,3.987354e-002,1.145551e+000,-5.432164e-004
1.125520257675886e-009,3.300000e+000,4.077777e-002,1.238072e+000,-6.126922e-004
1.226756930911803e-009,3.300000e+000,4.192644e-002,1.349433e+000,-6.994245e-004
1.377046799002730e-009,3.300000e+000,4.371502e-002,1.514751e+000,-8.321584e-004
1.463598553262194e-009,3.300000e+000,4.479078e-002,1.609958e+000,-9.105899e-004
1.554977688064682e-009,3.300000e+000,4.597118e-002,1.710475e+000,-9.951703e-004
1.646808285466650e-009,3.300000e+000,4.720209e-002,1.811489e+000,-1.081686e-003
1.830469480270587e-009,3.300000e+000,4.976753e-002,2.013516e+000,-1.257790e-003
2.019739831988166e-009,3.300000e+000,5.250314e-002,2.221714e+000,-1.441692e-003
2.049313036103094e-009,3.300000e+000,5.294364e-002,2.254244e+000,-1.470728e-003
2.108459444332951e-009,3.300000e+000,5.384038e-002,2.319305e+000,-1.529130e-003
2.123246046390415e-009,3.300000e+000,5.406624e-002,2.335571e+000,-1.543761e-003
2.152819250505343e-009,3.300000e+000,5.452209e-002,2.368101e+000,-1.573092e-003
2.211965658735200e-009,3.300000e+000,5.543972e-002,2.433162e+000,-1.631849e-003
2.226752260792665e-009,3.300000e+000,5.567087e-002,2.449428e+000,-1.646566e-003
2.256325464907593e-009,3.300000e+000,5.613721e-002,2.481958e+000,-1.676057e-003
2.315471873137450e-009,3.300000e+000,5.708060e-002,2.547019e+000,-1.735179e-003
2.433764689597163e-009,3.300000e+000,5.899118e-002,2.677141e+000,-1.853712e-003
2.463337893712092e-009,3.300000e+000,5.947551e-002,2.709672e+000,-1.883420e-003
2.522484301941948e-009,3.300000e+000,6.045947e-002,2.774733e+000,-1.942988e-003
2.640777118401662e-009,3.300000e+000,6.244937e-002,2.904855e+000,-2.062314e-003
2.729496730746447e-009,3.300000e+000,6.397136e-002,3.002446e+000,-2.152032e-003
2.744283332803911e-009,3.300000e+000,6.422735e-002,3.018712e+000,-2.167000e-003
2.773856536918840e-009,3.300000e+000,6.474300e-002,3.051242e+000,-2.196960e-003
2.833002945148696e-009,3.300000e+000,6.577964e-002,3.116303e+000,-2.256908e-003
2.847789547206161e-009,3.300000e+000,6.604037e-002,3.132569e+000,-2.271902e-003
2.877362751321089e-009,3.300000e+000,6.656544e-002,3.165099e+000,-2.301909e-003
2.936509159550946e-009,3.300000e+000,6.762291e-002,3.230160e+000,-2.361953e-003
3.000000000000000e-009,3.300000e+000,6.876541e-002,3.300000e+000,-2.426437e-003
3.000793635505613e-009,3.300000e+000,6.877980e-002,3.300000e+000,-2.427242e-003
3.002380906516840e-009,3.300000e+000,6.880853e-002,3.300000e+000,-2.428849e-003
3.005555448539292e-009,3.300000e+000,6.886593e-002,3.300000e+000,-2.432056e-003
3.006349084044905e-009,3.300000e+000,6.888026e-002,3.300000e+000,-2.432856e-003
3.007936355056132e-009,3.300000e+000,6.890887e-002,3.300000e+000,-2.434450e-003
3.011110897078584e-009,3.300000e+000,6.896603e-002,3.300000e+000,-2.437630e-003
3.011904532584197e-009,3.300000e+000,6.898029e-002,3.300000e+000,-2.438422e-003
3.013491803595424e-009,3.300000e+000,6.900878e-002,3.300000e+000,-2.440003e-003
3.016666345617876e-009,3.300000e+000,6.906569e-002,3.300000e+000,-2.443156e-003
3.017459981123489e-009,3.300000e+000,6.907989e-002,3.300000e+000,-2.443942e-003
3.019047252134716e-009,3.300000e+000,6.910826e-002,3.300000e+000,-2.445508e-003
3.022221794157168e-009,3.300000e+000,6.916492e-002,3.300000e+000,-2.448634e-003
3.023015429662781e-009,3.300000e+000,6.917907e-002,3.300000e+000,-2.449414e-003
3.024602700674008e-009,3.300000e+000,6.920731e-002,3.300000e+000,-2.450967e-003
3.027777242696460e-009,3.300000e+000,6.926367e-002,3.300000e+000,-2.454061e-003
3.034126326741366e-009,3.300000e+000,6.937589e-002,3.300000e+000,-2.460191e-003
3.046824494831177e-009,3.300000e+000,6.959831e-002,3.300000e+000,-2.472232e-003
3.072220831010798e-009,3.300000e+000,7.003879e-002,3.300000e+000,-2.495837e-003
3.078569915055704e-009,3.300000e+000,7.014769e-002,3.300000e+000,-2.501605e-003
3.091268083145515e-009,3.300000e+000,7.036275e-002,3.300000e+000,-2.512841e-003
3.123013503370042e-009,3.300000e+000,7.089439e-002,3.300000e+000,-2.540271e-003
3.161108007639475e-009,3.300000e+000,7.151248e-002,3.300000e+000,-2.571015e-003
3.211900679998718e-009,3.300000e+000,7.231753e-002,3.300000e+000,-2.609924e-003
3.224598848088529e-009,3.300000e+000,7.251479e-002,3.300000e+000,-2.619214e-003
3.249995184268151e-009,3.300000e+000,7.290043e-002,3.300000e+000,-2.636824e-003
3.300787856627394e-009,3.300000e+000,7.365943e-002,3.300000e+000,-2.670705e-003
3.338882360896827e-009,3.300000e+000,7.421030e-002,3.300000e+000,-2.694112e-003
3.389675033256070e-009,3.300000e+000,7.492881e-002,3.300000e+000,-2.723579e-003
3.402373201345881e-009,3.300000e+000,7.510532e-002,3.300000e+000,-2.730608e-003
3.427769537525503e-009,3.300000e+000,7.545356e-002,3.300000e+000,-2.744143e-003
3.434118621570408e-009,3.300000e+000,7.553995e-002,3.300000e+000,-2.747454e-003
3.446816789660219e-009,3.300000e+000,7.571109e-002,3.300000e+000,-2.753897e-003
3.472213125839841e-009,3.300000e+000,7.604910e-002,3.300000e+000,-2.766321e-003
3.523005798199084e-009,3.300000e+000,7.670882e-002,3.300000e+000,-2.789399e-003
3.624591142917571e-009,3.300000e+000,7.797079e-002,3.300000e+000,-2.829340e-003
3.827761832354544e-009,3.300000e+000,8.031366e-002,3.300000e+000,-2.889747e-003
4.234103211228491e-009,3.300000e+000,8.452483e-002,3.300000e+000,-2.960283e-003
5.046785968976385e-009,3.300000e+000,9.206184e-002,3.300000e+000,-3.010500e-003
6.046785968976385e-009,3.300000e+000,1.006054e-001,3.300000e+000,-3.003120e-003
7.046785968976385e-009,3.300000e+000,1.087505e-001,3.300000e+000,-2.965574e-003
8.046785968976385e-009,3.300000e+000,1.166946e-001,3.300000e+000,-2.920515e-003
9.046785968976386e-009,3.300000e+000,1.244845e-001,3.300000e+000,-2.873452e-003
1.004678596897639e-008,3.300000e+000,1.321004e-001,3.300000e+000,-2.823255e-003
1.104678596897639e-008,3.300000e+000,1.394502e-001,3.300000e+000,-2.763222e-003
1.204678596897639e-008,3.300000e+000,1.462603e-001,3.300000e+000,-2.673632e-003
1.304678596897639e-008,3.300000e+000,1.518228e-001,3.300000e+000,-2.504371e-003
1.404678596897639e-008,3.300000e+000,1.545914e-001,3.300000e+000,-2.149436e-003
1.504678596897639e-008,3.300000e+000,1.519879e-001,3.300000e+000,-1.444318e-003
1.604678596897639e-008,3.300000e+000,1.412580e-001,3.300000e+000,-2.482454e-004
1.704678596897639e-008,3.300000e+000,1.216118e-001,3.300000e+000,1.389068e-003
1.804678596897639e-008,3.300000e+000,9.608234e-002,3.300000e+000,3.121932e-003
1.904678596897639e-008,3.300000e+000,7.059924e-002,3.300000e+000,4.451407e-003
2.004678596897639e-008,3.300000e+000,5.011837e-002,3.300000e+000,5.071951e-003
2.104678596897638e-008,3.300000e+000,3.583398e-002,3.300000e+000,5.051021e-003
2.204678596897638e-008,3.300000e+000,2.632599e-002,3.300000e+000,4.650771e-003
2.304678596897638e-008,3.300000e+000,1.991911e-002,3.300000e+000,4.093423e-003
2.404678596897638e-008,3.300000e+000,1.549160e-002,3.300000e+000,3.505426e-003
2.504678596897638e-008,3.300000e+000,1.235074e-002,3.300000e+000,2.949561e-003
2.604678596897638e-008,3.300000e+000,1.006936e-002,3.300000e+000,2.452773e-003
2.704678596897638e-008,3.300000e+000,8.377335e-003,3.300000e+000,2.023163e-003
2.804678596897638e-008,3.300000e+000,7.098653e-003,3.300000e+000,1.659391e-003
2.904678596897638e-008,3.300000e+000,6.116455e-003,3.300000e+000,1.355672e-003
3.004678596897638e-008,3.300000e+000,5.350882e-003,3.300000e+000,1.104580e-003
3.104678596897638e-008,3.300000e+000,4.745985e-003,3.300000e+000,8.984747e-004
3.204678596897638e-008,3.300000e+000,4.261889e-003,3.300000e+000,7.301889e-004
3.304678596897638e-008,3.300000e+000,3.869668e-003,3.300000e+000,5.933266e-004
3.404678596897638e-008,3.300000e+000,3.548067e-003,3.300000e+000,4.823496e-004
3.504678596897639e-008,3.300000e+000,3.281272e-003,3.300000e+000,3.925599e-004
3.604678596897639e-008,3.300000e+000,3.057399e-003,3.300000e+000,3.200267e-004
3.704678596897639e-008,3.300000e+000,2.867431e-003,3.300000e+000,2.614952e-004
3.804678596897639e-008,3.300000e+000,2.704476e-003,3.300000e+000,2.142906e-004
3.904678596897640e-008,3.300000e+000,2.563220e-003,3.300000e+000,1.762278e-004
4.004678596897640e-008,3.300000e+000,2.439540e-003,3.300000e+000,1.455300e-004
4.104678596897640e-008,3.300000e+000,2.330214e-003,3.300000e+000,1.207578e-004
4.204678596897640e-008,3.300000e+000,2.232709e-003,3.300000e+000,1.007481e-004
4.304678596897641e-008,3.300000e+000,2.145019e-003,3.300000e+000,8.456388e-005
4.404678596897641e-008,3.300000e+000,2.065549e-003,3.300000e+000,7.145126e-005
4.504678596897641e-008,3.300000e+000,1.993018e-003,3.300000e+000,6.080477e-005
4.604678596897641e-008,3.300000e+000,1.926395e-003,3.300000e+000,5.213865e-005
4.704678596897642e-008,3.300000e+000,1.864839e-003,3.300000e+000,4.506356e-005
4.804678596897642e-008,3.300000e+000,1.807668e-003,3.300000e+000,3.926763e-005
4.904678596897642e-008,3.300000e+000,1.754318e-003,3.300000e+000,3.450115e-005
5.004678596897642e-008,3.300000e+000,1.704322e-003,3.300000e+000,3.056420e-005
5.104678596897642e-008,3.300000e+000,1.657292e-003,3.300000e+000,2.729673e-005
5.204678596897643e-008,3.300000e+000,1.612875e-003,3.300000e+000,2.456597e-005
5.300000000000000e-008,3.300000e+000,1.572259e-003,3.300000e+000,2.229322e-005
5.306755157271062e-008,3.300000e+000,1.526717e-003,3.225693e+000,2.595762e-005
5.320265471813185e-008,3.300000e+000,1.408560e-003,3.077080e+000,3.547677e-005
5.347286100897432e-008,3.300000e+000,1.132561e-003,2.779853e+000,5.690499e-005
5.390059757841368e-008,3.300000e+000,6.848903e-004,2.309343e+000,8.834678e-005
5.475607071729241e-008,3.300000e+000,-2.048515e-004,1.368322e+000,1.438333e-004
5.500000000000000e-008,3.300000e+000,-4.583367e-004,1.100000e+000,1.576909e-004
5.548785856541517e-008,3.300000e+000,-9.662266e-004,5.633556e-001,1.823003e-004
5.568141668492846e-008,3.300000e+000,-1.168459e-003,3.504416e-001,1.914649e-004
5.582693941339637e-008,3.300000e+000,-1.321064e-003,1.903666e-001,1.980035e-004
5.589493339728609e-008,3.300000e+000,-1.392542e-003,1.155733e-001,2.009885e-004
5.592102724737260e-008,3.300000e+000,-1.420012e-003,8.687003e-002,2.021177e-004
5.594884765216653e-008,3.300000e+000,-1.449324e-003,5.626758e-002,2.033133e-004
5.595931226854853e-008,3.300000e+000,-1.460355e-003,4.475651e-002,2.037612e-004
5.597576066329458e-008,3.300000e+000,-1.477702e-003,2.666327e-002,2.044624e-004
5.600000000000000e-008,3.300000e+000,-1.503275e-003,0.000000e+000,2.054930e-004
5.600185701241810e-008,3.300000e+000,-1.505158e-003,0.000000e+000,2.055646e-004
5.600557103725431e-008,3.300000e+000,-1.508758e-003,0.000000e+000,2.056928e-004
5.601299908692673e-008,3.300000e+000,-1.515341e-003,0.000000e+000,2.058926e-004
5.602309517307060e-008,3.300000e+000,-1.523198e-003,0.000000e+000,2.060647e-004
5.603433878459898e-008,3.300000e+000,-1.530382e-003,0.000000e+000,2.061137e-004
5.605682600765574e-008,3.300000e+000,-1.540888e-003,0.000000e+000,2.058619e-004
5.610180045376927e-008,3.300000e+000,-1.553605e-003,0.000000e+000,2.046176e-004
5.619174934599632e-008,3.300000e+000,-1.565341e-003,0.000000e+000,2.009625e-004
5.637164713045041e-008,3.300000e+000,-1.574839e-003,0.000000e+000,1.927387e-004
5.673144269935861e-008,3.300000e+000,-1.586211e-003,0.000000e+000,1.769779e-004
5.745103383717501e-008,3.300000e+000,-1.605548e-003,0.000000e+000,1.492977e-004
5.845103383717501e-008,3.300000e+000,-1.628119e-003,0.000000e+000,1.172509e-004
5.945103383717501e-008,3.300000e+000,-1.646317e-003,0.000000e+000,9.167161e-005
6.045103383717501e-008,3.300000e+000,-1.660813e-003,0.000000e+000,7.169403e-005
6.145103383717501e-008,3.300000e+000,-1.672502e-003,0.000000e+000,5.609824e-005
6.245103383717500e-008,3.300000e+000,-1.682107e-003,0.000000e+000,4.393171e-005
6.345103383717500e-008,3.300000e+000,-1.690195e-003,0.000000e+000,3.444921e-005
6.445103383717499e-008,3.300000e+000,-1.697228e-003,0.000000e+000,2.706880e-005
6.545103383717499e-008,3.300000e+000,-1.703570e-003,0.000000e+000,2.133507e-005
6.645103383717498e-008,3.300000e+000,-1.709523e-003,0.000000e+000,1.689239e-005
6.745103383717498e-008,3.300000e+000,-1.715328e-003,0.000000e+000,1.346246e-005
6.845103383717498e-008,3.300000e+000,-1.721187e-003,0.000000e+000,1.082794e-005
6.945103383717497e-008,3.300000e+000,-1.727268e-003,0.000000e+000,8.818820e-006
7.045103383717497e-008,3.300000e+000,-1.733713e-003,0.000000e+000,7.302409e-006
7.145103383717496e-008,3.300000e+000,-1.740646e-003,0.000000e+000,6.174982e-006
7.245103383717496e-008,3.300000e+000,-1.748178e-003,0.000000e+000,5.355705e-006
7.345103383717495e-008,3.300000e+000,-1.756407e-003,0.000000e+000,4.781527e-006
7.445103383717495e-008,3.300000e+000,-1.765429e-003,0.000000e+000,4.403470e-006
7.545103383717495e-008,3.300000e+000,-1.775332e-003,0.000000e+000,4.183521e-006
7.645103383717494e-008,3.300000e+000,-1.786206e-003,0.000000e+000,4.092368e-006
7.745103383717494e-008,3.300000e+000,-1.798141e-003,0.000000e+000,4.107513e-006
7.845103383717493e-008,3.300000e+000,-1.811228e-003,0.000000e+000,4.211902e-006
7.945103383717493e-008,3.300000e+000,-1.825566e-003,0.000000e+000,4.392783e-006
8.045103383717492e-008,3.300000e+000,-1.841259e-003,0.000000e+000,4.640887e-006
8.145103383717492e-008,3.300000e+000,-1.858418e-003,0.000000e+000,4.949754e-006
8.245103383717492e-008,3.300000e+000,-1.877168e-003,0.000000e+000,5.315253e-006
8.345103383717491e-008,3.300000e+000,-1.897642e-003,0.000000e+000,5.735201e-006
8.445103383717491e-008,3.300000e+000,-1.919992e-003,0.000000e+000,6.209108e-006
8.545103383717490e-008,3.300000e+000,-1.944384e-003,0.000000e+000,6.737981e-006
8.645103383717490e-008,3.300000e+000,-1.971006e-003,0.000000e+000,7.324222e-006
8.745103383717489e-008,3.300000e+000,-2.000069e-003,0.000000e+000,7.971562e-006
8.845103383717489e-008,3.300000e+000,-2.031811e-003,0.000000e+000,8.685070e-006
8.945103383717489e-008,3.300000e+000,-2.066502e-003,0.000000e+000,9.471195e-006
9.045103383717488e-008,3.300000e+000,-2.104449e-003,0.000000e+000,1.033786e-005
9.145103383717488e-008,3.300000e+000,-2.146002e-003,0.000000e+000,1.129462e-005
9.245103383717487e-008,3.300000e+000,-2.191559e-003,0.000000e+000,1.235281e-005
9.345103383717487e-008,3.300000e+000,-2.241578e-003,0.000000e+000,1.352582e-005
9.445103383717486e-008,3.300000e+000,-2.296585e-003,0.000000e+000,1.482940e-005
9.545103383717486e-008,3.300000e+000,-2.357182e-003,0.000000e+000,1.628195e-005
9.645103383717486e-008,3.300000e+000,-2.424065e-003,0.000000e+000,1.790500e-005
9.745103383717485e-008,3.300000e+000,-2.498034e-003,0.000000e+000,1.972367e-005
9.845103383717485e-008,3.300000e+000,-2.578965e-003,0.000000e+000,2.173753e-005
9.900000000000000e-008,3.300000e+000,-2.627727e-003,0.000000e+000,2.296665e-005
1.000000000000000e-007,3.300000e+000,-2.722607e-003,0.000000e+000,2.537928e-005
1.000297245369442e-007,3.267303e+000,-2.811846e-003,0.000000e+000,3.321864e-005
1.000891736108326e-007,3.201909e+000,-3.088894e-003,0.000000e+000,5.766981e-005
1.001413302788967e-007,3.144537e+000,-3.459762e-003,0.000000e+000,9.034993e-005
1.002096478898457e-007,3.069387e+000,-4.118403e-003,0.000000e+000,1.478595e-004
1.003240734698241e-007,2.943519e+000,-5.415292e-003,0.000000e+000,2.598435e-004
1.003747853751050e-007,2.887736e+000,-6.046636e-003,0.000000e+000,3.137675e-004
1.003966217159006e-007,2.863716e+000,-6.338411e-003,0.000000e+000,3.381448e-004
1.005216217159006e-007,2.726216e+000,-8.086239e-003,0.000000e+000,4.805965e-004
1.006466217159006e-007,2.588716e+000,-9.914381e-003,0.000000e+000,6.263792e-004
1.007716217159006e-007,2.451216e+000,-1.189571e-002,0.000000e+000,7.806525e-004
1.010216217159006e-007,2.176216e+000,-1.621684e-002,0.000000e+000,1.111038e-003
1.011526416256532e-007,2.032094e+000,-1.868647e-002,0.000000e+000,1.295227e-003
1.013327558152969e-007,1.833969e+000,-2.237357e-002,0.000000e+000,1.562302e-003
1.015235661261457e-007,1.624077e+000,-2.659140e-002,0.000000e+000,1.857960e-003
1.018416645495144e-007,1.274169e+000,-3.422303e-002,0.000000e+000,2.369815e-003
1.022320130220480e-007,8.447857e-001,-4.419572e-002,0.000000e+000,3.005686e-003
1.024984929339125e-007,5.516578e-001,-5.124620e-002,0.000000e+000,3.433125e-003
1.025299456915538e-007,5.170597e-001,-5.207799e-002,0.000000e+000,3.480255e-003
1.025928512068365e-007,4.478637e-001,-5.355415e-002,0.000000e+000,3.556319e-003
1.027186622374020e-007,3.094715e-001,-5.592979e-002,0.000000e+000,3.654019e-003
1.027483779388691e-007,2.767843e-001,-5.615386e-002,0.000000e+000,3.646287e-003
1.028078093418035e-007,2.114097e-001,-5.497602e-002,0.000000e+000,3.484333e-003
1.028811371941313e-007,1.307491e-001,-5.129091e-002,0.000000e+000,3.084595e-003
1.028833735689186e-007,1.282891e-001,-5.110164e-002,0.000000e+000,3.065533e-003
1.028878463184933e-007,1.233691e-001,-5.060934e-002,0.000000e+000,3.017255e-003
1.028967918176426e-007,1.135290e-001,-4.952147e-002,0.000000e+000,2.911538e-003
1.029146828159412e-007,9.384890e-002,-4.690219e-002,0.000000e+000,2.660881e-003
1.029504648125385e-007,5.448871e-002,-4.011003e-002,0.000000e+000,2.022859e-003
1.030000000000000e-007,0.000000e+000,-2.867929e-002,0.000000e+000,9.616992e-004
1.030006191898433e-007,0.000000e+000,-2.850119e-002,0.000000e+000,9.453570e-004
1.030018575695298e-007,0.000000e+000,-2.814281e-002,0.000000e+000,9.124810e-004
1.030043343289029e-007,0.000000e+000,-2.742025e-002,0.000000e+000,8.462239e-004
1.030049535187461e-007,0.000000e+000,-2.723789e-002,0.000000e+000,8.295098e-004
1.030061918984327e-007,0.000000e+000,-2.687047e-002,0.000000e+000,7.958450e-004
1.030065014933543e-007,0.000000e+000,-2.677822e-002,0.000000e+000,7.873943e-004
1.030071206831976e-007,0.000000e+000,-2.659304e-002,0.000000e+000,7.704340e-004
1.030072754806584e-007,0.000000e+000,-2.654664e-002,0.000000e+000,7.661853e-004
1.030075850755800e-007,0.000000e+000,-2.645361e-002,0.000000e+000,7.576665e-004
1.030082042654233e-007,0.000000e+000,-2.626718e-002,0.000000e+000,7.405977e-004
1.030083590628841e-007,0.000000e+000,-2.622047e-002,0.000000e+000,7.363213e-004
