time,V(n010),V(n011),V(n014),I(Rchip2)
0.000000000000000e+000,3.300000e+000,3.007375e-002,0.000000e+000,-3.473519e-038
9.999999824516700e-015,3.300000e+000,3.007375e-002,1.100000e-005,-1.878442e-013
1.999999964903340e-014,3.300000e+000,3.007375e-002,2.200000e-005,-5.008463e-013
3.999999929806680e-014,3.300000e+000,3.007375e-002,4.400000e-005,-1.652403e-012
7.999999859613360e-014,3.300000e+000,3.007375e-002,8.800000e-005,-6.157086e-012
1.599999971922672e-013,3.300000e+000,3.007375e-002,1.760000e-004,-2.416908e-011
3.199999943845344e-013,3.300000e+000,3.007375e-002,3.520000e-004,-9.617693e-011
6.399999887690688e-013,3.300000e+000,3.007376e-002,7.040000e-004,-3.839496e-010
1.279999977538138e-012,3.300000e+000,3.007377e-002,1.408000e-003,-1.533475e-009
2.559999955076275e-012,3.300000e+000,3.007382e-002,2.816000e-003,-6.122624e-009
5.119999910152551e-012,3.300000e+000,3.007402e-002,5.632000e-003,-2.442587e-008
1.023999982030510e-011,3.300000e+000,3.007474e-002,1.126400e-002,-8.959272e-008
1.637209616779586e-011,3.300000e+000,3.007602e-002,1.800931e-002,-2.053777e-007
1.927884762325731e-011,3.300000e+000,3.007681e-002,2.120673e-002,-2.772879e-007
2.137566695248968e-011,3.300000e+000,3.007748e-002,2.351323e-002,-3.381808e-007
2.146047134819259e-011,3.300000e+000,3.007751e-002,2.360652e-002,-3.408558e-007
2.146070118927818e-011,3.300000e+000,3.007751e-002,2.360677e-002,-3.408630e-007
2.146071511904095e-011,3.300000e+000,3.007751e-002,2.360679e-002,-3.408635e-007
2.146071860148164e-011,3.300000e+000,3.007751e-002,2.360679e-002,-3.408636e-007
2.146071960148164e-011,3.300000e+000,3.007751e-002,2.360679e-002,-3.408636e-007
2.146072160148164e-011,3.300000e+000,3.007751e-002,2.360679e-002,-3.408637e-007
2.146072460148164e-011,3.300000e+000,3.007751e-002,2.360680e-002,-3.408639e-007
1.464607246014817e-010,3.300000e+000,3.038911e-002,1.611068e-001,-2.758043e-005
2.714607246014817e-010,3.300000e+000,3.084013e-002,2.986068e-001,-6.641812e-005
3.964607246014817e-010,3.300000e+000,3.146297e-002,4.361068e-001,-1.191573e-004
5.214607246014817e-010,3.300000e+000,3.223694e-002,5.736068e-001,-1.835900e-004
7.136143049728292e-010,3.300000e+000,3.359635e-002,7.849757e-001,-2.953117e-004
7.837342642314977e-010,3.300000e+000,3.415059e-002,8.621077e-001,-3.402873e-004
8.338090702999380e-010,3.300000e+000,3.458330e-002,9.171900e-001,-3.749979e-004
8.849543973500089e-010,3.300000e+000,3.504662e-002,9.734498e-001,-4.118544e-004
9.422341805440522e-010,3.300000e+000,3.558872e-002,1.036458e+000,-4.545955e-004
1.018824155331634e-009,3.300000e+000,3.634715e-002,1.120707e+000,-5.137783e-004
1.101572119019361e-009,3.300000e+000,3.720338e-002,1.211729e+000,-5.798548e-004
1.170792434540229e-009,3.300000e+000,3.794984e-002,1.287872e+000,-6.367980e-004
1.236859610257554e-009,3.300000e+000,3.868877e-002,1.360546e+000,-6.925341e-004
1.303771152226892e-009,3.300000e+000,3.946675e-002,1.434148e+000,-7.504157e-004
1.437594236165567e-009,3.300000e+000,4.108809e-002,1.581354e+000,-8.691170e-004
1.562510495571914e-009,3.300000e+000,4.268398e-002,1.718762e+000,-9.831587e-004
1.812343014384607e-009,3.300000e+000,4.602561e-002,1.993577e+000,-1.216685e-003
1.844867438358074e-009,3.300000e+000,4.647693e-002,2.029354e+000,-1.247604e-003
1.909916286305010e-009,3.300000e+000,4.741028e-002,2.100908e+000,-1.310322e-003
2.040013982198880e-009,3.300000e+000,4.930641e-002,2.244015e+000,-1.436463e-003
2.060554233916696e-009,3.300000e+000,4.961079e-002,2.266610e+000,-1.456491e-003
2.101634737352327e-009,3.300000e+000,5.022968e-002,2.311798e+000,-1.496760e-003
2.183795744223590e-009,3.300000e+000,5.147897e-002,2.402175e+000,-1.577515e-003
2.236926617834210e-009,3.300000e+000,5.230162e-002,2.460619e+000,-1.629995e-003
2.325478073851911e-009,3.300000e+000,5.369097e-002,2.558026e+000,-1.717754e-003
2.360898656258991e-009,3.300000e+000,5.425641e-002,2.596988e+000,-1.752997e-003
2.431739821073152e-009,3.300000e+000,5.539552e-002,2.674914e+000,-1.823592e-003
2.484870694683772e-009,3.300000e+000,5.626269e-002,2.733358e+000,-1.876692e-003
2.555711859497933e-009,3.300000e+000,5.743066e-002,2.811283e+000,-1.947623e-003
2.573422150701473e-009,3.300000e+000,5.772502e-002,2.830764e+000,-1.965380e-003
2.608842733108554e-009,3.300000e+000,5.831918e-002,2.869727e+000,-2.000945e-003
2.679683897922715e-009,3.300000e+000,5.951538e-002,2.947652e+000,-2.072145e-003
2.732814771533335e-009,3.300000e+000,6.042483e-002,3.006096e+000,-2.125644e-003
2.803655936347496e-009,3.300000e+000,6.164872e-002,3.084022e+000,-2.197057e-003
2.821366227551036e-009,3.300000e+000,6.195697e-002,3.103503e+000,-2.214924e-003
2.856786809958116e-009,3.300000e+000,6.257873e-002,3.142466e+000,-2.250693e-003
2.927627974772277e-009,3.300000e+000,6.383265e-002,3.220391e+000,-2.322285e-003
3.000000000000000e-009,3.300000e+000,6.512357e-002,3.300000e+000,-2.395475e-003
3.000904650315347e-009,3.300000e+000,6.513985e-002,3.300000e+000,-2.396389e-003
3.002713950946040e-009,3.300000e+000,6.517235e-002,3.300000e+000,-2.398213e-003
3.006332552207426e-009,3.300000e+000,6.523721e-002,3.300000e+000,-2.401844e-003
3.013569754730198e-009,3.300000e+000,6.536657e-002,3.300000e+000,-2.409066e-003
3.015379055360892e-009,3.300000e+000,6.539880e-002,3.300000e+000,-2.410860e-003
3.018997656622278e-009,3.300000e+000,6.546312e-002,3.300000e+000,-2.414431e-003
3.019902306937624e-009,3.300000e+000,6.547917e-002,3.300000e+000,-2.415322e-003
3.021711607568318e-009,3.300000e+000,6.551123e-002,3.300000e+000,-2.417095e-003
3.025330208829704e-009,3.300000e+000,6.557518e-002,3.300000e+000,-2.420626e-003
3.032567411352476e-009,3.300000e+000,6.570274e-002,3.300000e+000,-2.427649e-003
3.034376711983169e-009,3.300000e+000,6.573453e-002,3.300000e+000,-2.429394e-003
3.037995313244556e-009,3.300000e+000,6.579789e-002,3.300000e+000,-2.432859e-003
3.045232515767328e-009,3.300000e+000,6.592426e-002,3.300000e+000,-2.439752e-003
3.047041816398021e-009,3.300000e+000,6.595576e-002,3.300000e+000,-2.441464e-003
3.050660417659407e-009,3.300000e+000,6.601854e-002,3.300000e+000,-2.444865e-003
3.057897620182180e-009,3.300000e+000,6.614348e-002,3.300000e+000,-2.451600e-003
3.072372025227724e-009,3.300000e+000,6.639206e-002,3.300000e+000,-2.464924e-003
3.075990626489110e-009,3.300000e+000,6.645383e-002,3.300000e+000,-2.468214e-003
3.083227829011883e-009,3.300000e+000,6.657651e-002,3.300000e+000,-2.474699e-003
3.097702234057427e-009,3.300000e+000,6.682065e-002,3.300000e+000,-2.487533e-003
3.101320835318814e-009,3.300000e+000,6.688132e-002,3.300000e+000,-2.490702e-003
3.108558037841586e-009,3.300000e+000,6.700185e-002,3.300000e+000,-2.496949e-003
3.126651044148517e-009,3.300000e+000,6.730133e-002,3.300000e+000,-2.512363e-003
3.148362651716833e-009,3.300000e+000,6.765454e-002,3.300000e+000,-2.530180e-003
3.177311461807922e-009,3.300000e+000,6.811941e-002,3.300000e+000,-2.553268e-003
3.184548664330695e-009,3.300000e+000,6.823432e-002,3.300000e+000,-2.558897e-003
3.199023069376239e-009,3.300000e+000,6.846123e-002,3.300000e+000,-2.569831e-003
3.227971879467328e-009,3.300000e+000,6.891088e-002,3.300000e+000,-2.591241e-003
3.249683487035645e-009,3.300000e+000,6.924176e-002,3.300000e+000,-2.606598e-003
3.278632297126734e-009,3.300000e+000,6.967723e-002,3.300000e+000,-2.626447e-003
3.300343904695051e-009,3.300000e+000,6.999789e-002,3.300000e+000,-2.640680e-003
3.329292714786140e-009,3.300000e+000,7.042014e-002,3.300000e+000,-2.659074e-003
3.351004322354456e-009,3.300000e+000,7.073201e-002,3.300000e+000,-2.672342e-003
3.361860126138615e-009,3.300000e+000,7.088625e-002,3.300000e+000,-2.678789e-003
3.376334531184159e-009,3.300000e+000,7.109069e-002,3.300000e+000,-2.687252e-003
3.379953132445546e-009,3.300000e+000,7.114156e-002,3.300000e+000,-2.689341e-003
3.387190334968318e-009,3.300000e+000,7.124273e-002,3.300000e+000,-2.693457e-003
3.401664740013862e-009,3.300000e+000,7.144358e-002,3.300000e+000,-2.701526e-003
3.430613550104951e-009,3.300000e+000,7.183944e-002,3.300000e+000,-2.717023e-003
3.488511170287130e-009,3.300000e+000,7.260938e-002,3.300000e+000,-2.745633e-003
3.604306410651487e-009,3.300000e+000,7.407346e-002,3.300000e+000,-2.794574e-003
3.835896891380200e-009,3.300000e+000,7.676732e-002,3.300000e+000,-2.867033e-003
4.299077852837626e-009,3.300000e+000,8.155951e-002,3.300000e+000,-2.948401e-003
5.225439775752479e-009,3.300000e+000,9.009089e-002,3.300000e+000,-3.002465e-003
6.225439775752479e-009,3.300000e+000,9.857348e-002,3.300000e+000,-2.992154e-003
7.225439775752479e-009,3.300000e+000,1.066672e-001,3.300000e+000,-2.953006e-003
8.225439775752480e-009,3.300000e+000,1.145700e-001,3.300000e+000,-2.907526e-003
9.225439775752480e-009,3.300000e+000,1.223164e-001,3.300000e+000,-2.859958e-003
1.022543977575248e-008,3.300000e+000,1.298797e-001,3.300000e+000,-2.808636e-003
1.122543977575248e-008,3.300000e+000,1.371498e-001,3.300000e+000,-2.745570e-003
1.222543977575248e-008,3.300000e+000,1.438072e-001,3.300000e+000,-2.647775e-003
1.322543977575248e-008,3.300000e+000,1.490436e-001,3.300000e+000,-2.458244e-003
1.422543977575248e-008,3.300000e+000,1.511547e-001,3.300000e+000,-2.061071e-003
1.522543977575248e-008,3.300000e+000,1.474579e-001,3.300000e+000,-1.288402e-003
1.622543977575248e-008,3.300000e+000,1.353795e-001,3.300000e+000,-1.983903e-005
1.722543977575248e-008,3.300000e+000,1.147149e-001,3.300000e+000,1.646704e-003
1.822543977575248e-008,3.300000e+000,8.917736e-002,3.300000e+000,3.320799e-003
1.922543977575248e-008,3.300000e+000,6.480668e-002,3.300000e+000,4.514940e-003
2.022543977575248e-008,3.300000e+000,4.590633e-002,3.300000e+000,4.993717e-003
2.122543977575248e-008,3.300000e+000,3.296641e-002,3.300000e+000,4.882699e-003
2.222543977575248e-008,3.300000e+000,2.437417e-002,3.300000e+000,4.447620e-003
2.322543977575248e-008,3.300000e+000,1.856401e-002,3.300000e+000,3.889135e-003
2.422543977575248e-008,3.300000e+000,1.453015e-002,3.300000e+000,3.316594e-003
2.522543977575248e-008,3.300000e+000,1.165433e-002,3.300000e+000,2.782964e-003
2.622543977575247e-008,3.300000e+000,9.555691e-003,3.300000e+000,2.309902e-003
2.722543977575247e-008,3.300000e+000,7.992374e-003,3.300000e+000,1.902891e-003
2.822543977575247e-008,3.300000e+000,6.806173e-003,3.300000e+000,1.559420e-003
2.922543977575247e-008,3.300000e+000,5.891497e-003,3.300000e+000,1.273328e-003
3.022543977575247e-008,3.300000e+000,5.175892e-003,3.300000e+000,1.037208e-003
3.122543977575247e-008,3.300000e+000,4.608396e-003,3.300000e+000,8.436332e-004
3.222543977575247e-008,3.300000e+000,4.152570e-003,3.300000e+000,6.857222e-004
3.322543977575248e-008,3.300000e+000,3.781902e-003,3.300000e+000,5.573821e-004
3.422543977575248e-008,3.300000e+000,3.476860e-003,3.300000e+000,4.533634e-004
3.522543977575248e-008,3.300000e+000,3.222879e-003,3.300000e+000,3.692284e-004
3.622543977575248e-008,3.300000e+000,3.008988e-003,3.300000e+000,3.012735e-004
3.722543977575249e-008,3.300000e+000,2.826849e-003,3.300000e+000,2.464376e-004
3.822543977575249e-008,3.300000e+000,2.670074e-003,3.300000e+000,2.022088e-004
3.922543977575249e-008,3.300000e+000,2.533728e-003,3.300000e+000,1.665377e-004
4.022543977575249e-008,3.300000e+000,2.413976e-003,3.300000e+000,1.377589e-004
4.122543977575250e-008,3.300000e+000,2.307815e-003,3.300000e+000,1.145244e-004
4.222543977575250e-008,3.300000e+000,2.212879e-003,3.300000e+000,9.574583e-005
4.322543977575250e-008,3.300000e+000,2.127291e-003,3.300000e+000,8.054637e-005
4.422543977575250e-008,3.300000e+000,2.049554e-003,3.300000e+000,6.822104e-005
4.522543977575251e-008,3.300000e+000,1.978464e-003,3.300000e+000,5.820374e-005
4.622543977575251e-008,3.300000e+000,1.913049e-003,3.300000e+000,5.004038e-005
4.722543977575251e-008,3.300000e+000,1.852516e-003,3.300000e+000,4.336705e-005
4.822543977575251e-008,3.300000e+000,1.796218e-003,3.300000e+000,3.789225e-005
4.922543977575251e-008,3.300000e+000,1.743620e-003,3.300000e+000,3.338256e-005
5.022543977575252e-008,3.300000e+000,1.694278e-003,3.300000e+000,2.965109e-005
5.122543977575252e-008,3.300000e+000,1.647682e-003,3.300000e+000,2.652204e-005
5.200000000000000e-008,3.300000e+000,1.613486e-003,3.300000e+000,2.447598e-005
5.300000000000000e-008,3.300000e+000,1.571016e-003,3.300000e+000,2.214765e-005
5.306786557017206e-008,3.300000e+000,1.525882e-003,3.225348e+000,2.577617e-005
5.320359671051618e-008,3.300000e+000,1.408075e-003,3.076044e+000,3.526521e-005
5.347505899120441e-008,3.300000e+000,1.131438e-003,2.777435e+000,5.674448e-005
5.390621084872066e-008,3.300000e+000,6.802842e-004,2.303168e+000,8.842315e-005
5.476851456375316e-008,3.300000e+000,-2.165008e-004,1.354634e+000,1.443375e-004
5.500000000000000e-008,3.300000e+000,-4.570133e-004,1.100000e+000,1.575024e-004
5.546297087249367e-008,3.300000e+000,-9.388180e-004,5.907320e-001,1.809448e-004
5.563823110945037e-008,3.300000e+000,-1.121667e-003,3.979458e-001,1.893575e-004
5.564947952608661e-008,3.300000e+000,-1.133431e-003,3.855725e-001,1.898761e-004
5.567197635935908e-008,3.300000e+000,-1.156998e-003,3.608260e-001,1.908997e-004
5.571697002590402e-008,3.300000e+000,-1.204167e-003,3.113330e-001,1.929278e-004
5.580695735899391e-008,3.300000e+000,-1.298582e-003,2.123469e-001,1.969461e-004
5.582002533382023e-008,3.300000e+000,-1.312306e-003,1.979721e-001,1.975241e-004
5.584616128347288e-008,3.300000e+000,-1.339779e-003,1.692226e-001,1.986690e-004
5.589843318277817e-008,3.300000e+000,-1.394763e-003,1.117235e-001,2.009447e-004
5.592428907656585e-008,3.300000e+000,-1.421979e-003,8.328202e-002,2.020636e-004
5.593628250676078e-008,3.300000e+000,-1.434611e-003,7.008924e-002,2.025798e-004
5.594879682426936e-008,3.300000e+000,-1.447796e-003,5.632349e-002,2.031168e-004
5.595836846704933e-008,3.300000e+000,-1.457884e-003,4.579468e-002,2.035265e-004
5.596884322064098e-008,3.300000e+000,-1.468927e-003,3.427246e-002,2.039740e-004
5.597905049281672e-008,3.300000e+000,-1.479691e-003,2.304446e-002,2.044089e-004
5.599946503716820e-008,3.300000e+000,-1.501225e-003,5.884591e-004,2.052769e-004
5.600000000000000e-008,3.300000e+000,-1.501789e-003,0.000000e+000,2.052996e-004
5.600029029658452e-008,3.300000e+000,-1.502094e-003,0.000000e+000,2.053117e-004
5.600087088975356e-008,3.300000e+000,-1.502698e-003,0.000000e+000,2.053356e-004
5.600203207609163e-008,3.300000e+000,-1.503887e-003,0.000000e+000,2.053816e-004
5.600435444876777e-008,3.300000e+000,-1.506186e-003,0.000000e+000,2.054661e-004
5.600899919412007e-008,3.300000e+000,-1.510502e-003,0.000000e+000,2.056095e-004
5.601717349646132e-008,3.300000e+000,-1.517389e-003,0.000000e+000,2.057972e-004
5.602747098090837e-008,3.300000e+000,-1.524809e-003,0.000000e+000,2.059190e-004
5.604632441521207e-008,3.300000e+000,-1.535264e-003,0.000000e+000,2.058578e-004
5.608403128381945e-008,3.300000e+000,-1.548816e-003,0.000000e+000,2.050733e-004
5.615944502103422e-008,3.300000e+000,-1.562354e-003,0.000000e+000,2.023208e-004
5.631027249546376e-008,3.300000e+000,-1.573075e-003,0.000000e+000,1.955733e-004
5.661192744432284e-008,3.300000e+000,-1.583558e-003,0.000000e+000,1.820703e-004
5.721523734204100e-008,3.300000e+000,-1.600224e-003,0.000000e+000,1.579338e-004
5.821523734204101e-008,3.300000e+000,-1.623718e-003,0.000000e+000,1.242423e-004
5.921523734204101e-008,3.300000e+000,-1.642786e-003,0.000000e+000,9.712062e-005
6.021523734204101e-008,3.300000e+000,-1.657937e-003,0.000000e+000,7.593907e-005
6.121523734204101e-008,3.300000e+000,-1.670111e-003,0.000000e+000,5.940325e-005
6.221523734204100e-008,3.300000e+000,-1.680064e-003,0.000000e+000,4.650260e-005
6.321523734204100e-008,3.300000e+000,-1.688393e-003,0.000000e+000,3.644658e-005
6.421523734204099e-008,3.300000e+000,-1.695579e-003,0.000000e+000,2.861793e-005
6.521523734204099e-008,3.300000e+000,-1.702005e-003,0.000000e+000,2.253367e-005
6.621523734204098e-008,3.300000e+000,-1.707983e-003,0.000000e+000,1.781667e-005
6.721523734204098e-008,3.300000e+000,-1.713765e-003,0.000000e+000,1.417183e-005
6.821523734204098e-008,3.300000e+000,-1.719562e-003,0.000000e+000,1.136875e-005
6.921523734204097e-008,3.300000e+000,-1.725545e-003,0.000000e+000,9.227171e-006
7.021523734204097e-008,3.300000e+000,-1.731863e-003,0.000000e+000,7.606426e-006
7.121523734204096e-008,3.300000e+000,-1.738642e-003,0.000000e+000,6.396551e-006
7.221523734204096e-008,3.300000e+000,-1.745994e-003,0.000000e+000,5.511842e-006
7.321523734204095e-008,3.300000e+000,-1.754021e-003,0.000000e+000,4.885430e-006
7.421523734204095e-008,3.300000e+000,-1.762818e-003,0.000000e+000,4.465354e-006
7.521523734204095e-008,3.300000e+000,-1.772473e-003,0.000000e+000,4.211252e-006
7.621523734204094e-008,3.300000e+000,-1.783076e-003,0.000000e+000,4.091972e-006
7.721523734204094e-008,3.300000e+000,-1.794715e-003,0.000000e+000,4.083558e-006
7.821523734204093e-008,3.300000e+000,-1.807483e-003,0.000000e+000,4.167799e-006
7.921523734204093e-008,3.300000e+000,-1.821474e-003,0.000000e+000,4.331021e-006
8.021523734204092e-008,3.300000e+000,-1.836790e-003,0.000000e+000,4.563205e-006
8.121523734204092e-008,3.300000e+000,-1.853542e-003,0.000000e+000,4.857280e-006
8.221523734204092e-008,3.300000e+000,-1.871849e-003,0.000000e+000,5.208602e-006
8.321523734204091e-008,3.300000e+000,-1.891843e-003,0.000000e+000,5.614550e-006
8.421523734204091e-008,3.300000e+000,-1.913669e-003,0.000000e+000,6.074243e-006
8.521523734204090e-008,3.300000e+000,-1.937489e-003,0.000000e+000,6.588332e-006
8.621523734204090e-008,3.300000e+000,-1.963486e-003,0.000000e+000,7.158877e-006
8.721523734204089e-008,3.300000e+000,-1.991863e-003,0.000000e+000,7.789272e-006
8.821523734204089e-008,3.300000e+000,-2.022851e-003,0.000000e+000,8.484234e-006
8.921523734204089e-008,3.300000e+000,-2.056710e-003,0.000000e+000,9.249841e-006
9.021523734204088e-008,3.300000e+000,-2.093736e-003,0.000000e+000,1.009361e-005
9.121523734204088e-008,3.300000e+000,-2.134267e-003,0.000000e+000,1.102464e-005
9.221523734204087e-008,3.300000e+000,-2.178688e-003,0.000000e+000,1.205375e-005
9.321523734204087e-008,3.300000e+000,-2.227438e-003,0.000000e+000,1.319375e-005
9.421523734204086e-008,3.300000e+000,-2.281024e-003,0.000000e+000,1.445970e-005
9.521523734204086e-008,3.300000e+000,-2.340025e-003,0.000000e+000,1.586923e-005
9.621523734204086e-008,3.300000e+000,-2.405110e-003,0.000000e+000,1.744295e-005
9.721523734204085e-008,3.300000e+000,-2.477048e-003,0.000000e+000,1.920492e-005
9.821523734204085e-008,3.300000e+000,-2.556239e-003,0.000000e+000,2.116948e-005
9.900000000000000e-008,3.300000e+000,-2.624833e-003,0.000000e+000,2.289431e-005
1.000000000000000e-007,3.300000e+000,-2.718751e-003,0.000000e+000,2.527844e-005
1.000485723474491e-007,3.246570e+000,-2.845119e-003,0.000000e+000,3.626989e-005
1.001457170423472e-007,3.139711e+000,-3.221120e-003,0.000000e+000,6.905729e-005
1.002267204326022e-007,3.050607e+000,-3.673332e-003,0.000000e+000,1.082566e-004
1.003322422584397e-007,2.934534e+000,-4.402820e-003,0.000000e+000,1.708547e-004
1.003874737148770e-007,2.873779e+000,-4.820665e-003,0.000000e+000,2.062667e-004
1.004307155454485e-007,2.826213e+000,-5.164031e-003,0.000000e+000,2.350295e-004
1.004671632253970e-007,2.786120e+000,-5.459942e-003,0.000000e+000,2.595672e-004
1.005187752017043e-007,2.729347e+000,-5.885157e-003,0.000000e+000,2.945056e-004
1.005508491885317e-007,2.694066e+000,-6.152127e-003,0.000000e+000,3.162594e-004
1.005761329674050e-007,2.666254e+000,-6.364257e-003,0.000000e+000,3.334077e-004
1.006037988349493e-007,2.635821e+000,-6.597519e-003,0.000000e+000,3.521495e-004
1.006222349888456e-007,2.615541e+000,-6.753549e-003,0.000000e+000,3.646177e-004
1.006422727160457e-007,2.593500e+000,-6.923695e-003,0.000000e+000,3.781400e-004
1.006669672034795e-007,2.566336e+000,-7.133984e-003,0.000000e+000,3.947629e-004
1.006929226885000e-007,2.537785e+000,-7.355692e-003,0.000000e+000,4.121735e-004
1.007304140345131e-007,2.496545e+000,-7.677048e-003,0.000000e+000,4.371954e-004
1.007817780325491e-007,2.440044e+000,-8.119101e-003,0.000000e+000,4.712089e-004
1.008604476132539e-007,2.353508e+000,-8.798773e-003,0.000000e+000,5.228515e-004
1.008973512649234e-007,2.312914e+000,-9.118687e-003,0.000000e+000,5.468716e-004
