time,V(n010),V(n011),V(n014),I(Rchip2)
0.000000000000000e+000,3.300000e+000,3.108340e-002,0.000000e+000,-3.590133e-038
9.999999824516700e-015,3.300000e+000,3.108340e-002,1.100000e-005,-1.890733e-013
1.999999964903340e-014,3.300000e+000,3.108340e-002,2.200000e-005,-5.041439e-013
3.999999929806680e-014,3.300000e+000,3.108340e-002,4.400000e-005,-1.663544e-012
7.999999859613360e-014,3.300000e+000,3.108340e-002,8.800000e-005,-6.199598e-012
1.599999971922672e-013,3.300000e+000,3.108340e-002,1.760000e-004,-2.433782e-011
3.199999943845344e-013,3.300000e+000,3.108340e-002,3.520000e-004,-9.685055e-011
6.399999887690688e-013,3.300000e+000,3.108341e-002,7.040000e-004,-3.866429e-010
1.279999977538138e-012,3.300000e+000,3.108342e-002,1.408000e-003,-1.544256e-009
2.559999955076275e-012,3.300000e+000,3.108347e-002,2.816000e-003,-6.165814e-009
5.119999910152551e-012,3.300000e+000,3.108367e-002,5.632000e-003,-2.459873e-008
1.023999982030510e-011,3.300000e+000,3.108440e-002,1.126400e-002,-9.022759e-008
1.637209614660323e-011,3.300000e+000,3.108569e-002,1.800931e-002,-2.075557e-007
1.959937430298797e-011,3.300000e+000,3.108658e-002,2.155931e-002,-2.883722e-007
2.113163291114025e-011,3.300000e+000,3.108708e-002,2.324480e-002,-3.332964e-007
2.188006656124754e-011,3.300000e+000,3.109978e-002,2.406807e-002,-1.251592e-006
1.021880066561248e-009,3.300000e+000,6.345066e-002,1.124068e+000,-2.208647e-003
2.021880066561247e-009,3.300000e+000,9.313437e-002,2.224068e+000,-3.894654e-003
3.000000000000000e-009,3.300000e+000,1.206376e-001,3.300000e+000,-5.155806e-003
3.000195312500000e-009,3.300000e+000,1.206428e-001,3.300000e+000,-5.156011e-003
3.000225830078125e-009,3.300000e+000,1.206432e-001,3.300000e+000,-5.156009e-003
3.000233459472656e-009,3.300000e+000,1.206432e-001,3.300000e+000,-5.156001e-003
3.000235366821289e-009,3.300000e+000,1.206432e-001,3.300000e+000,-5.155998e-003
3.000239181518555e-009,3.300000e+000,1.206432e-001,3.300000e+000,-5.155994e-003
3.000246810913086e-009,3.300000e+000,1.206432e-001,3.300000e+000,-5.155983e-003
3.000262069702148e-009,3.300000e+000,1.206432e-001,3.300000e+000,-5.155961e-003
3.000292587280274e-009,3.300000e+000,1.206431e-001,3.300000e+000,-5.155912e-003
3.000353622436524e-009,3.300000e+000,1.206429e-001,3.300000e+000,-5.155807e-003
3.000475692749024e-009,3.300000e+000,1.206422e-001,3.300000e+000,-5.155580e-003
3.000719833374024e-009,3.300000e+000,1.206402e-001,3.300000e+000,-5.155069e-003
3.001208114624024e-009,3.300000e+000,1.206346e-001,3.300000e+000,-5.153904e-003
3.002184677124024e-009,3.300000e+000,1.206209e-001,3.300000e+000,-5.151348e-003
3.002428817749024e-009,3.300000e+000,1.206171e-001,3.300000e+000,-5.150672e-003
3.002917098999024e-009,3.300000e+000,1.206089e-001,3.300000e+000,-5.149278e-003
3.003039169311523e-009,3.300000e+000,1.206069e-001,3.300000e+000,-5.148927e-003
3.003283309936524e-009,3.300000e+000,1.206027e-001,3.300000e+000,-5.148223e-003
3.003344345092774e-009,3.300000e+000,1.206017e-001,3.300000e+000,-5.148046e-003
3.003466415405273e-009,3.300000e+000,1.205996e-001,3.300000e+000,-5.147693e-003
3.003710556030274e-009,3.300000e+000,1.205954e-001,3.300000e+000,-5.146985e-003
3.003893661499024e-009,3.300000e+000,1.205923e-001,3.300000e+000,-5.146453e-003
3.004137802124024e-009,3.300000e+000,1.205881e-001,3.300000e+000,-5.145743e-003
3.004198837280274e-009,3.300000e+000,1.205870e-001,3.300000e+000,-5.145566e-003
3.004320907592774e-009,3.300000e+000,1.205849e-001,3.300000e+000,-5.145210e-003
3.004565048217774e-009,3.300000e+000,1.205807e-001,3.300000e+000,-5.144499e-003
3.004748153686524e-009,3.300000e+000,1.205775e-001,3.300000e+000,-5.143966e-003
3.004778671264649e-009,3.300000e+000,1.205770e-001,3.300000e+000,-5.143877e-003
3.004839706420899e-009,3.300000e+000,1.205759e-001,3.300000e+000,-5.143699e-003
3.004961776733399e-009,3.300000e+000,1.205738e-001,3.300000e+000,-5.143343e-003
3.004992294311524e-009,3.300000e+000,1.205733e-001,3.300000e+000,-5.143255e-003
3.005053329467774e-009,3.300000e+000,1.205723e-001,3.300000e+000,-5.143077e-003
3.005175399780274e-009,3.300000e+000,1.205701e-001,3.300000e+000,-5.142721e-003
3.005205917358399e-009,3.300000e+000,1.205696e-001,3.300000e+000,-5.142632e-003
3.005282211303711e-009,3.300000e+000,1.205683e-001,3.300000e+000,-5.142410e-003
3.005312728881837e-009,3.300000e+000,1.205678e-001,3.300000e+000,-5.142321e-003
3.005373764038087e-009,3.300000e+000,1.205667e-001,3.300000e+000,-5.142143e-003
3.005389022827149e-009,3.300000e+000,1.205665e-001,3.300000e+000,-5.142099e-003
3.005427169799805e-009,3.300000e+000,1.205658e-001,3.300000e+000,-5.141987e-003
3.005495834350587e-009,3.300000e+000,1.205646e-001,3.300000e+000,-5.141787e-003
3.005526351928712e-009,3.300000e+000,1.205641e-001,3.300000e+000,-5.141698e-003
3.005553054809571e-009,3.300000e+000,1.205636e-001,3.300000e+000,-5.141621e-003
3.005566406250001e-009,3.300000e+000,1.205634e-001,3.300000e+000,-5.141582e-003
3.005575942993165e-009,3.300000e+000,1.205632e-001,3.300000e+000,-5.141554e-003
3.005587387084962e-009,3.300000e+000,1.205630e-001,3.300000e+000,-5.141520e-003
3.005594062805176e-009,3.300000e+000,1.205629e-001,3.300000e+000,-5.141501e-003
3.005597400665284e-009,3.300000e+000,1.205628e-001,3.300000e+000,-5.141492e-003
3.005599308013916e-009,3.300000e+000,1.205628e-001,3.300000e+000,-5.141486e-003
3.005599784851075e-009,3.300000e+000,1.205628e-001,3.300000e+000,-5.141485e-003
3.005600738525391e-009,3.300000e+000,1.205628e-001,3.300000e+000,-5.141482e-003
3.005600976943970e-009,3.300000e+000,1.205628e-001,3.300000e+000,-5.141481e-003
3.005601453781128e-009,3.300000e+000,1.205628e-001,3.300000e+000,-5.141479e-003
3.005601572990418e-009,3.300000e+000,1.205628e-001,3.300000e+000,-5.141479e-003
3.005601811408997e-009,3.300000e+000,1.205628e-001,3.300000e+000,-5.141478e-003
3.005602288246155e-009,3.300000e+000,1.205628e-001,3.300000e+000,-5.141477e-003
3.005602407455445e-009,3.300000e+000,1.205628e-001,3.300000e+000,-5.141477e-003
3.005602645874024e-009,3.300000e+000,1.205627e-001,3.300000e+000,-5.141476e-003
3.005603122711182e-009,3.300000e+000,1.205627e-001,3.300000e+000,-5.141475e-003
3.005604076385498e-009,3.300000e+000,1.205627e-001,3.300000e+000,-5.141472e-003
3.005605983734131e-009,3.300000e+000,1.205627e-001,3.300000e+000,-5.141466e-003
3.005609798431397e-009,3.300000e+000,1.205626e-001,3.300000e+000,-5.141455e-003
3.005663204193115e-009,3.300000e+000,1.205617e-001,3.300000e+000,-5.141300e-003
3.005724239349366e-009,3.300000e+000,1.205606e-001,3.300000e+000,-5.141122e-003
3.005846309661865e-009,3.300000e+000,1.205585e-001,3.300000e+000,-5.140766e-003
3.006090450286866e-009,3.300000e+000,1.205543e-001,3.300000e+000,-5.140055e-003
3.006578731536865e-009,3.300000e+000,1.205459e-001,3.300000e+000,-5.138634e-003
3.007555294036865e-009,3.300000e+000,1.205290e-001,3.300000e+000,-5.135792e-003
3.007799434661866e-009,3.300000e+000,1.205248e-001,3.300000e+000,-5.135082e-003
3.008287715911865e-009,3.300000e+000,1.205164e-001,3.300000e+000,-5.133664e-003
3.009264278411865e-009,3.300000e+000,1.204996e-001,3.300000e+000,-5.130829e-003
3.009508419036866e-009,3.300000e+000,1.204954e-001,3.300000e+000,-5.130121e-003
3.009996700286865e-009,3.300000e+000,1.204870e-001,3.300000e+000,-5.128705e-003
3.010973262786865e-009,3.300000e+000,1.204702e-001,3.300000e+000,-5.125878e-003
3.012926387786866e-009,3.300000e+000,1.204368e-001,3.300000e+000,-5.120233e-003
3.013414669036865e-009,3.300000e+000,1.204285e-001,3.300000e+000,-5.118824e-003
3.014391231536866e-009,3.300000e+000,1.204119e-001,3.300000e+000,-5.116010e-003
3.016344356536866e-009,3.300000e+000,1.203787e-001,3.300000e+000,-5.110391e-003
3.016832637786865e-009,3.300000e+000,1.203704e-001,3.300000e+000,-5.108989e-003
3.017809200286866e-009,3.300000e+000,1.203539e-001,3.300000e+000,-5.106189e-003
3.019762325286866e-009,3.300000e+000,1.203211e-001,3.300000e+000,-5.100603e-003
3.023668575286866e-009,3.300000e+000,1.202556e-001,3.300000e+000,-5.089463e-003
3.024645137786866e-009,3.300000e+000,1.202393e-001,3.300000e+000,-5.086687e-003
3.026598262786866e-009,3.300000e+000,1.202069e-001,3.300000e+000,-5.081154e-003
3.030504512786866e-009,3.300000e+000,1.201424e-001,3.300000e+000,-5.070120e-003
3.031481075286866e-009,3.300000e+000,1.201264e-001,3.300000e+000,-5.067370e-003
3.033434200286866e-009,3.300000e+000,1.200944e-001,3.300000e+000,-5.061890e-003
3.037340450286866e-009,3.300000e+000,1.200311e-001,3.300000e+000,-5.050985e-003
3.045152950286866e-009,3.300000e+000,1.199054e-001,3.300000e+000,-5.029297e-003
3.047106075286866e-009,3.300000e+000,1.198743e-001,3.300000e+000,-5.023908e-003
3.051012325286866e-009,3.300000e+000,1.198128e-001,3.300000e+000,-5.013212e-003
3.058824825286866e-009,3.300000e+000,1.196909e-001,3.300000e+000,-4.991932e-003
3.060777950286866e-009,3.300000e+000,1.196607e-001,3.300000e+000,-4.986646e-003
3.064684200286866e-009,3.300000e+000,1.196010e-001,3.300000e+000,-4.976150e-003
3.072496700286866e-009,3.300000e+000,1.194826e-001,3.300000e+000,-4.955272e-003
3.074449825286867e-009,3.300000e+000,1.194533e-001,3.300000e+000,-4.950085e-003
3.078356075286866e-009,3.300000e+000,1.193954e-001,3.300000e+000,-4.939788e-003
3.086168575286867e-009,3.300000e+000,1.192805e-001,3.300000e+000,-4.919303e-003
3.088121700286867e-009,3.300000e+000,1.192521e-001,3.300000e+000,-4.914214e-003
3.092027950286867e-009,3.300000e+000,1.191959e-001,3.300000e+000,-4.904111e-003
3.099840450286867e-009,3.300000e+000,1.190844e-001,3.300000e+000,-4.884012e-003
3.101793575286867e-009,3.300000e+000,1.190569e-001,3.300000e+000,-4.879019e-003
3.106676387786867e-009,3.300000e+000,1.189886e-001,3.300000e+000,-4.866607e-003
3.108629512786867e-009,3.300000e+000,1.189615e-001,3.300000e+000,-4.861665e-003
3.109117794036867e-009,3.300000e+000,1.189547e-001,3.300000e+000,-4.860432e-003
3.112047481536867e-009,3.300000e+000,1.189143e-001,3.300000e+000,-4.853052e-003
3.114366817474367e-009,3.300000e+000,1.188825e-001,3.300000e+000,-4.847229e-003
3.114671993255617e-009,3.300000e+000,1.188784e-001,3.300000e+000,-4.846465e-003
3.115358638763430e-009,3.300000e+000,1.188690e-001,3.300000e+000,-4.844746e-003
3.115539836883547e-009,3.300000e+000,1.188665e-001,3.300000e+000,-4.844293e-003
3.116501140594484e-009,3.300000e+000,1.188534e-001,3.300000e+000,-4.841889e-003
3.117477703094484e-009,3.300000e+000,1.188402e-001,3.300000e+000,-4.839452e-003
3.119430828094484e-009,3.300000e+000,1.188138e-001,3.300000e+000,-4.834590e-003
3.123337078094484e-009,3.300000e+000,1.187614e-001,3.300000e+000,-4.824915e-003
3.131149578094485e-009,3.300000e+000,1.186584e-001,3.300000e+000,-4.805760e-003
3.146774578094484e-009,3.300000e+000,1.184593e-001,3.300000e+000,-4.768215e-003
3.178024578094484e-009,3.300000e+000,1.180873e-001,3.300000e+000,-4.696060e-003
3.240524578094484e-009,3.300000e+000,1.174401e-001,3.300000e+000,-4.562597e-003
3.365524578094484e-009,3.300000e+000,1.164781e-001,3.300000e+000,-4.332914e-003
3.615524578094485e-009,3.300000e+000,1.154800e-001,3.300000e+000,-3.977459e-003
4.005726098407638e-009,3.300000e+000,1.155163e-001,3.300000e+000,-3.602080e-003
4.534596489042033e-009,3.300000e+000,1.171697e-001,3.300000e+000,-3.274470e-003
4.632753555263844e-009,3.300000e+000,1.176645e-001,3.300000e+000,-3.235055e-003
4.829067687707467e-009,3.300000e+000,1.188527e-001,3.300000e+000,-3.178959e-003
4.878146220818372e-009,3.300000e+000,1.191637e-001,3.300000e+000,-3.166560e-003
4.976303287040183e-009,3.300000e+000,1.198156e-001,3.300000e+000,-3.145289e-003
5.172617419483806e-009,3.300000e+000,1.211757e-001,3.300000e+000,-3.109540e-003
5.565245684371051e-009,3.300000e+000,1.240432e-001,3.300000e+000,-3.056552e-003
6.350502214145541e-009,3.300000e+000,1.300263e-001,3.300000e+000,-2.985064e-003
7.350502214145541e-009,3.300000e+000,1.377911e-001,3.300000e+000,-2.921999e-003
8.350502214145541e-009,3.300000e+000,1.455346e-001,3.300000e+000,-2.870857e-003
9.350502214145542e-009,3.300000e+000,1.531370e-001,3.300000e+000,-2.820169e-003
1.035050221414554e-008,3.300000e+000,1.604828e-001,3.300000e+000,-2.760528e-003
1.135050221414554e-008,3.300000e+000,1.673023e-001,3.300000e+000,-2.672317e-003
1.235050221414554e-008,3.300000e+000,1.729047e-001,3.300000e+000,-2.506564e-003
1.335050221414555e-008,3.300000e+000,1.757660e-001,3.300000e+000,-2.158587e-003
1.435050221414555e-008,3.300000e+000,1.732896e-001,3.300000e+000,-1.461572e-003
1.535050221414555e-008,3.300000e+000,1.625408e-001,3.300000e+000,-2.600004e-004
1.635050221414555e-008,3.300000e+000,1.422305e-001,3.300000e+000,1.433440e-003
1.735050221414554e-008,3.300000e+000,1.146539e-001,3.300000e+000,3.320712e-003
1.835050221414554e-008,3.300000e+000,8.552460e-002,3.300000e+000,4.897587e-003
1.935050221414554e-008,3.300000e+000,6.078818e-002,3.300000e+000,5.757482e-003
2.035050221414554e-008,3.300000e+000,4.298039e-002,3.300000e+000,5.861817e-003
2.135050221414554e-008,3.300000e+000,3.111036e-002,3.300000e+000,5.464539e-003
2.235050221414554e-008,3.300000e+000,2.319950e-002,3.300000e+000,4.840468e-003
2.335050221414554e-008,3.300000e+000,1.779433e-002,3.300000e+000,4.158807e-003
2.435050221414554e-008,3.300000e+000,1.400224e-002,3.300000e+000,3.504626e-003
2.535050221414554e-008,3.300000e+000,1.127566e-002,3.300000e+000,2.915627e-003
2.635050221414554e-008,3.300000e+000,9.272425e-003,3.300000e+000,2.404295e-003
2.735050221414553e-008,3.300000e+000,7.771723e-003,3.300000e+000,1.970478e-003
2.835050221414553e-008,3.300000e+000,6.628533e-003,3.300000e+000,1.607960e-003
2.935050221414553e-008,3.300000e+000,5.744631e-003,3.300000e+000,1.308198e-003
3.035050221414553e-008,3.300000e+000,5.051766e-003,3.300000e+000,1.062207e-003
3.135050221414553e-008,3.300000e+000,4.501628e-003,3.300000e+000,8.614703e-004
3.235050221414554e-008,3.300000e+000,4.059399e-003,3.300000e+000,6.983520e-004
3.335050221414554e-008,3.300000e+000,3.699638e-003,3.300000e+000,5.662217e-004
3.435050221414554e-008,3.300000e+000,3.403515e-003,3.300000e+000,4.594470e-004
3.535050221414554e-008,3.300000e+000,3.156952e-003,3.300000e+000,3.733123e-004
3.635050221414555e-008,3.300000e+000,2.949315e-003,3.300000e+000,3.039125e-004
3.735050221414555e-008,3.300000e+000,2.772512e-003,3.300000e+000,2.480388e-004
3.835050221414555e-008,3.300000e+000,2.620333e-003,3.300000e+000,2.030710e-004
3.935050221414555e-008,3.300000e+000,2.487982e-003,3.300000e+000,1.668797e-004
4.035050221414556e-008,3.300000e+000,2.371726e-003,3.300000e+000,1.377409e-004
4.135050221414556e-008,3.300000e+000,2.268645e-003,3.300000e+000,1.142628e-004
4.235050221414556e-008,3.300000e+000,2.176438e-003,3.300000e+000,9.532507e-005
4.335050221414556e-008,3.300000e+000,2.093279e-003,3.300000e+000,8.002723e-005
4.435050221414556e-008,3.300000e+000,2.017715e-003,3.300000e+000,6.764683e-005
4.535050221414557e-008,3.300000e+000,1.948578e-003,3.300000e+000,5.760492e-005
4.635050221414557e-008,3.300000e+000,1.884923e-003,3.300000e+000,4.943807e-005
4.735050221414557e-008,3.300000e+000,1.825983e-003,3.300000e+000,4.277549e-005
4.835050221414557e-008,3.300000e+000,1.771132e-003,3.300000e+000,3.732073e-005
4.935050221414558e-008,3.300000e+000,1.719853e-003,3.300000e+000,3.283680e-005
5.035050221414558e-008,3.300000e+000,1.671715e-003,3.300000e+000,2.913429e-005
5.135050221414558e-008,3.300000e+000,1.626152e-003,3.300000e+000,2.602060e-005
5.200000000000000e-008,3.300000e+000,1.598049e-003,3.300000e+000,2.430714e-005
5.300000000000000e-008,3.300000e+000,1.436526e-003,3.300000e+000,3.234278e-005
5.343364373290221e-008,3.300000e+000,1.158681e-003,2.822992e+000,5.307476e-005
5.386444692313658e-008,3.300000e+000,7.136049e-004,2.349108e+000,8.569684e-005
5.432044046203516e-008,3.300000e+000,2.369461e-004,1.847515e+000,1.165323e-004
5.500888854696979e-008,3.300000e+000,-4.746320e-004,1.090223e+000,1.570326e-004
5.530564920344075e-008,3.300000e+000,-7.799419e-004,7.637859e-001,1.726485e-004
5.540647868705808e-008,3.300000e+000,-8.841982e-004,6.528735e-001,1.775658e-004
5.556995865392483e-008,3.300000e+000,-1.055438e-003,4.730455e-001,1.853828e-004
5.569952489221050e-008,3.300000e+000,-1.190585e-003,3.305226e-001,1.913180e-004
5.583476731862361e-008,3.300000e+000,-1.331894e-003,1.817559e-001,1.973497e-004
5.586873351906153e-008,3.300000e+000,-1.367448e-003,1.443931e-001,1.988378e-004
5.590130012318758e-008,3.300000e+000,-1.401581e-003,1.085699e-001,2.002475e-004
5.592570877929086e-008,3.300000e+000,-1.427178e-003,8.172034e-002,2.012984e-004
5.593697209693592e-008,3.300000e+000,-1.438996e-003,6.933069e-002,2.017813e-004
5.594787470709142e-008,3.300000e+000,-1.450439e-003,5.733782e-002,2.022475e-004
5.595742584418669e-008,3.300000e+000,-1.460466e-003,4.683157e-002,2.026549e-004
5.596763809882010e-008,3.300000e+000,-1.471190e-003,3.559809e-002,2.030897e-004
5.597957549073318e-008,3.300000e+000,-1.483728e-003,2.246696e-002,2.035970e-004
5.598091655213259e-008,3.300000e+000,-1.485137e-003,2.099179e-002,2.036539e-004
5.598359867493142e-008,3.300000e+000,-1.487955e-003,1.804146e-002,2.037676e-004
5.598896292052908e-008,3.300000e+000,-1.493592e-003,1.214079e-002,2.039948e-004
5.599969141172439e-008,3.300000e+000,-1.504757e-003,3.394471e-004,2.044386e-004
5.600653191560940e-008,3.300000e+000,-1.511503e-003,0.000000e+000,2.046871e-004
5.601421868464463e-008,3.300000e+000,-1.518285e-003,0.000000e+000,2.048933e-004
5.602456284848047e-008,3.300000e+000,-1.526250e-003,0.000000e+000,2.050646e-004
5.603427804184522e-008,3.300000e+000,-1.532507e-003,0.000000e+000,2.051139e-004
5.605370842857472e-008,3.300000e+000,-1.542004e-003,0.000000e+000,2.049392e-004
5.609256920203370e-008,3.300000e+000,-1.554244e-003,0.000000e+000,2.039845e-004
5.617029074895167e-008,3.300000e+000,-1.566388e-003,0.000000e+000,2.010092e-004
5.632573384278761e-008,3.300000e+000,-1.576234e-003,0.000000e+000,1.940077e-004
5.663662003045949e-008,3.300000e+000,-1.586566e-003,0.000000e+000,1.801967e-004
5.725839240580325e-008,3.300000e+000,-1.603388e-003,0.000000e+000,1.556057e-004
5.825839240580325e-008,3.300000e+000,-1.626317e-003,0.000000e+000,1.223567e-004
5.925839240580325e-008,3.300000e+000,-1.644870e-003,0.000000e+000,9.562839e-005
6.025839240580326e-008,3.300000e+000,-1.659577e-003,0.000000e+000,7.475528e-005
6.125839240580325e-008,3.300000e+000,-1.671362e-003,0.000000e+000,5.846123e-005
6.225839240580325e-008,3.300000e+000,-1.680970e-003,0.000000e+000,4.575004e-005
6.325839240580324e-008,3.300000e+000,-1.688986e-003,0.000000e+000,3.584240e-005
6.425839240580324e-008,3.300000e+000,-1.695883e-003,0.000000e+000,2.812986e-005
6.525839240580324e-008,3.300000e+000,-1.702038e-003,0.000000e+000,2.213635e-005
6.625839240580323e-008,3.300000e+000,-1.707757e-003,0.000000e+000,1.749015e-005
6.725839240580323e-008,3.300000e+000,-1.713289e-003,0.000000e+000,1.390040e-005
6.825839240580322e-008,3.300000e+000,-1.718838e-003,0.000000e+000,1.114000e-005
6.925839240580322e-008,3.300000e+000,-1.724575e-003,0.000000e+000,9.031319e-006
7.025839240580321e-008,3.300000e+000,-1.730644e-003,0.000000e+000,7.435710e-006
7.125839240580321e-008,3.300000e+000,-1.737169e-003,0.000000e+000,6.244803e-006
7.225839240580321e-008,3.300000e+000,-1.744261e-003,0.000000e+000,5.374131e-006
7.325839240580320e-008,3.300000e+000,-1.752019e-003,0.000000e+000,4.757794e-006
7.425839240580320e-008,3.300000e+000,-1.760535e-003,0.000000e+000,4.344576e-006
7.525839240580319e-008,3.300000e+000,-1.769897e-003,0.000000e+000,4.094692e-006
7.625839240580319e-008,3.300000e+000,-1.780191e-003,0.000000e+000,3.977430e-006
7.725839240580318e-008,3.300000e+000,-1.791504e-003,0.000000e+000,3.969162e-006
7.825839240580318e-008,3.300000e+000,-1.803925e-003,0.000000e+000,4.051922e-006
7.925839240580318e-008,3.300000e+000,-1.817547e-003,0.000000e+000,4.212201e-006
8.025839240580317e-008,3.300000e+000,-1.832470e-003,0.000000e+000,4.440095e-006
8.125839240580317e-008,3.300000e+000,-1.848800e-003,0.000000e+000,4.728588e-006
8.225839240580316e-008,3.300000e+000,-1.866653e-003,0.000000e+000,5.073053e-006
8.325839240580316e-008,3.300000e+000,-1.886156e-003,0.000000e+000,5.470841e-006
