time,V(n010),V(n011),V(n014),I(Rchip2)
0.000000000000000e+000,3.300000e+000,2.813455e-002,0.000000e+000,-3.249540e-038
9.999999824516700e-015,3.300000e+000,2.813455e-002,1.100000e-005,-1.849301e-013
1.999999964903340e-014,3.300000e+000,2.813455e-002,2.200000e-005,-4.931723e-013
3.999999929806680e-014,3.300000e+000,2.813455e-002,4.400000e-005,-1.627401e-012
7.999999859613360e-014,3.300000e+000,2.813455e-002,8.800000e-005,-6.064812e-012
1.599999971922672e-013,3.300000e+000,2.813455e-002,1.760000e-004,-2.380863e-011
3.199999943845344e-013,3.300000e+000,2.813455e-002,3.520000e-004,-9.474451e-011
6.399999887690688e-013,3.300000e+000,2.813455e-002,7.040000e-004,-3.782294e-010
1.279999977538138e-012,3.300000e+000,2.813457e-002,1.408000e-003,-1.510585e-009
2.559999955076275e-012,3.300000e+000,2.813461e-002,2.816000e-003,-6.030905e-009
5.119999910152551e-012,3.300000e+000,2.813481e-002,5.632000e-003,-2.405861e-008
1.023999982030510e-011,3.300000e+000,2.813552e-002,1.126400e-002,-8.824309e-008
1.637206980433984e-011,3.300000e+000,2.813678e-002,1.800928e-002,-2.022976e-007
1.928557403774427e-011,3.300000e+000,2.813756e-002,2.121413e-002,-2.733103e-007
2.138960381647120e-011,3.300000e+000,2.813822e-002,2.352856e-002,-3.335203e-007
2.146069421463370e-011,3.300000e+000,2.813825e-002,2.360676e-002,-3.357298e-007
2.146070819229752e-011,3.300000e+000,2.813825e-002,2.360678e-002,-3.357302e-007
2.146072042275336e-011,3.300000e+000,2.813825e-002,2.360679e-002,-3.357306e-007
2.146072391716931e-011,3.300000e+000,2.813825e-002,2.360680e-002,-3.357307e-007
2.146072491716931e-011,3.300000e+000,2.813825e-002,2.360680e-002,-3.357308e-007
1.464607249171693e-010,3.300000e+000,2.844579e-002,1.611068e-001,-2.722083e-005
2.714607249171693e-010,3.300000e+000,2.889127e-002,2.986068e-001,-6.558155e-005
3.964607249171694e-010,3.300000e+000,2.950691e-002,4.361068e-001,-1.177132e-004
5.214607249171693e-010,3.300000e+000,3.027235e-002,5.736068e-001,-1.814420e-004
7.131482569322187e-010,3.300000e+000,3.161437e-002,7.844631e-001,-2.917466e-004
7.841550268274415e-010,3.300000e+000,3.217060e-002,8.625705e-001,-3.368821e-004
8.380923087263660e-010,3.300000e+000,3.263635e-002,9.219015e-001,-3.741833e-004
9.241816322353790e-010,3.300000e+000,3.342177e-002,1.016600e+000,-4.364628e-004
9.853812387091705e-010,3.300000e+000,3.400717e-002,1.083919e+000,-4.824278e-004
1.045486152380052e-009,3.300000e+000,3.460814e-002,1.150035e+000,-5.291374e-004
1.106227561669220e-009,3.300000e+000,3.524122e-002,1.216850e+000,-5.778039e-004
1.204155812983901e-009,3.300000e+000,3.630795e-002,1.324571e+000,-6.587376e-004
1.314026614522255e-009,3.300000e+000,3.757235e-002,1.445429e+000,-7.528518e-004
1.510722029543195e-009,3.300000e+000,3.994212e-002,1.661794e+000,-9.262593e-004
1.530282417869742e-009,3.300000e+000,4.018651e-002,1.683311e+000,-9.438766e-004
1.569403194522836e-009,3.300000e+000,4.069031e-002,1.726344e+000,-9.797158e-004
1.647644747829024e-009,3.300000e+000,4.172102e-002,1.812409e+000,-1.052189e-003
1.793362121491965e-009,3.300000e+000,4.368506e-002,1.972698e+000,-1.188631e-003
1.817580139972810e-009,3.300000e+000,4.401901e-002,1.999338e+000,-1.211540e-003
1.866016176934501e-009,3.300000e+000,4.470191e-002,2.052618e+000,-1.257789e-003
1.962888250857883e-009,3.300000e+000,4.608542e-002,2.159177e+000,-1.350743e-003
1.987106269338729e-009,3.300000e+000,4.643646e-002,2.185817e+000,-1.374107e-003
2.035542306300420e-009,3.300000e+000,4.715028e-002,2.239097e+000,-1.421104e-003
2.132414380223802e-009,3.300000e+000,4.859403e-002,2.345656e+000,-1.515437e-003
2.151415033802027e-009,3.300000e+000,4.888076e-002,2.366557e+000,-1.534011e-003
2.189416340958476e-009,3.300000e+000,4.946183e-002,2.408358e+000,-1.571300e-003
2.265418955271375e-009,3.300000e+000,5.063386e-002,2.491961e+000,-1.646049e-003
2.284419608849599e-009,3.300000e+000,5.092977e-002,2.512861e+000,-1.664783e-003
2.322420916006049e-009,3.300000e+000,5.152823e-002,2.554663e+000,-1.702354e-003
2.417424183897172e-009,3.300000e+000,5.303914e-002,2.659167e+000,-1.796491e-003
2.455425491053621e-009,3.300000e+000,5.365446e-002,2.700968e+000,-1.834289e-003
2.550428758944744e-009,3.300000e+000,5.520713e-002,2.805472e+000,-1.928948e-003
2.664432680414092e-009,3.300000e+000,5.711145e-002,2.930876e+000,-2.042964e-003
2.683433333992317e-009,3.300000e+000,5.743227e-002,2.951777e+000,-2.061997e-003
2.721434641148766e-009,3.300000e+000,5.808008e-002,2.993578e+000,-2.100115e-003
2.797437255461665e-009,3.300000e+000,5.938460e-002,3.077181e+000,-2.176417e-003
2.816437909039889e-009,3.300000e+000,5.971336e-002,3.098082e+000,-2.195510e-003
2.854439216196338e-009,3.300000e+000,6.037693e-002,3.139883e+000,-2.233737e-003
2.930441830509237e-009,3.300000e+000,6.171555e-002,3.223486e+000,-2.310256e-003
3.000000000000000e-009,3.300000e+000,6.295047e-002,3.300000e+000,-2.380340e-003
3.000869477118635e-009,3.300000e+000,6.296603e-002,3.300000e+000,-2.381215e-003
3.002608431355904e-009,3.300000e+000,6.299714e-002,3.300000e+000,-2.382962e-003
3.006086339830442e-009,3.300000e+000,6.305920e-002,3.300000e+000,-2.386441e-003
3.013042156779518e-009,3.300000e+000,6.318299e-002,3.300000e+000,-2.393362e-003
3.014781111016787e-009,3.300000e+000,6.321385e-002,3.300000e+000,-2.395082e-003
3.018259019491325e-009,3.300000e+000,6.327535e-002,3.300000e+000,-2.398499e-003
3.025214836440402e-009,3.300000e+000,6.339805e-002,3.300000e+000,-2.405298e-003
3.026953790677671e-009,3.300000e+000,6.342863e-002,3.300000e+000,-2.406988e-003
3.030431699152209e-009,3.300000e+000,6.348959e-002,3.300000e+000,-2.410345e-003
3.037387516101285e-009,3.300000e+000,6.361122e-002,3.300000e+000,-2.417025e-003
3.039126470338555e-009,3.300000e+000,6.364153e-002,3.300000e+000,-2.418685e-003
3.042604378813093e-009,3.300000e+000,6.370196e-002,3.300000e+000,-2.421983e-003
3.049560195762169e-009,3.300000e+000,6.382252e-002,3.300000e+000,-2.428546e-003
3.051299149999438e-009,3.300000e+000,6.385258e-002,3.300000e+000,-2.430177e-003
3.054777058473976e-009,3.300000e+000,6.391248e-002,3.300000e+000,-2.433417e-003
3.061732875423052e-009,3.300000e+000,6.403176e-002,3.300000e+000,-2.439837e-003
3.075644509321205e-009,3.300000e+000,6.426910e-002,3.300000e+000,-2.452545e-003
3.079122417795743e-009,3.300000e+000,6.432810e-002,3.300000e+000,-2.455684e-003
3.086078234744820e-009,3.300000e+000,6.444533e-002,3.300000e+000,-2.461878e-003
3.099989868642972e-009,3.300000e+000,6.467868e-002,3.300000e+000,-2.474142e-003
3.103467777117510e-009,3.300000e+000,6.473669e-002,3.300000e+000,-2.477172e-003
3.124335227964740e-009,3.300000e+000,6.508142e-002,3.300000e+000,-2.494985e-003
3.134768953388354e-009,3.300000e+000,6.525186e-002,3.300000e+000,-2.503677e-003
3.148680587286507e-009,3.300000e+000,6.547670e-002,3.300000e+000,-2.515002e-003
3.176503855082812e-009,3.300000e+000,6.592216e-002,3.300000e+000,-2.537183e-003
3.183459672031888e-009,3.300000e+000,6.603234e-002,3.300000e+000,-2.542598e-003
3.197371305930041e-009,3.300000e+000,6.625004e-002,3.300000e+000,-2.553132e-003
3.225194573726346e-009,3.300000e+000,6.668164e-002,3.300000e+000,-2.573782e-003
3.246062024573575e-009,3.300000e+000,6.699952e-002,3.300000e+000,-2.588626e-003
3.273885292369880e-009,3.300000e+000,6.741816e-002,3.300000e+000,-2.607845e-003
3.294752743217110e-009,3.300000e+000,6.772669e-002,3.300000e+000,-2.621658e-003
3.322576011013415e-009,3.300000e+000,6.813319e-002,3.300000e+000,-2.639538e-003
3.343443461860644e-009,3.300000e+000,6.843298e-002,3.300000e+000,-2.652387e-003
3.371266729656949e-009,3.300000e+000,6.882814e-002,3.300000e+000,-2.669017e-003
3.392134180504178e-009,3.300000e+000,6.912037e-002,3.300000e+000,-2.681034e-003
3.402567905927793e-009,3.300000e+000,6.926502e-002,3.300000e+000,-2.686882e-003
3.419957448300483e-009,3.300000e+000,6.950459e-002,3.300000e+000,-2.696460e-003
3.426913265249560e-009,3.300000e+000,6.959958e-002,3.300000e+000,-2.700201e-003
3.440824899147712e-009,3.300000e+000,6.978831e-002,3.300000e+000,-2.707541e-003
3.468648166944018e-009,3.300000e+000,7.016069e-002,3.300000e+000,-2.721665e-003
3.524294702536628e-009,3.300000e+000,7.088650e-002,3.300000e+000,-2.747836e-003
3.635587773721849e-009,3.300000e+000,7.227174e-002,3.300000e+000,-2.792913e-003
3.858173916092291e-009,3.300000e+000,7.483455e-002,3.300000e+000,-2.860496e-003
4.303346200833174e-009,3.300000e+000,7.942224e-002,3.300000e+000,-2.938143e-003
5.193690770314941e-009,3.300000e+000,8.761957e-002,3.300000e+000,-2.992272e-003
6.193690770314941e-009,3.300000e+000,9.610216e-002,3.300000e+000,-2.984268e-003
7.193690770314941e-009,3.300000e+000,1.041883e-001,3.300000e+000,-2.946326e-003
8.193690770314941e-009,3.300000e+000,1.120763e-001,3.300000e+000,-2.901200e-003
9.193690770314941e-009,3.300000e+000,1.198073e-001,3.300000e+000,-2.853852e-003
1.019369077031494e-008,3.300000e+000,1.273577e-001,3.300000e+000,-2.802905e-003
1.119369077031494e-008,3.300000e+000,1.346233e-001,3.300000e+000,-2.740797e-003
1.219369077031494e-008,3.300000e+000,1.412990e-001,3.300000e+000,-2.645571e-003
1.319369077031494e-008,3.300000e+000,1.466085e-001,3.300000e+000,-2.462429e-003
1.419369077031495e-008,3.300000e+000,1.489002e-001,3.300000e+000,-2.078818e-003
1.519369077031494e-008,3.300000e+000,1.455367e-001,3.300000e+000,-1.328858e-003
1.619369077031494e-008,3.300000e+000,1.339227e-001,3.300000e+000,-8.830976e-005
1.719369077031494e-008,3.300000e+000,1.137459e-001,3.300000e+000,1.554789e-003
1.819369077031494e-008,3.300000e+000,8.859509e-002,3.300000e+000,3.218978e-003
1.919369077031494e-008,3.300000e+000,6.445841e-002,3.300000e+000,4.417785e-003
2.019369077031494e-008,3.300000e+000,4.567615e-002,3.300000e+000,4.909471e-003
2.119369077031494e-008,3.300000e+000,3.280107e-002,3.300000e+000,4.812668e-003
2.219369077031494e-008,3.300000e+000,2.425358e-002,3.300000e+000,4.390142e-003
2.319369077031494e-008,3.300000e+000,1.847539e-002,3.300000e+000,3.842342e-003
2.419369077031494e-008,3.300000e+000,1.446416e-002,3.300000e+000,3.278773e-003
2.519369077031493e-008,3.300000e+000,1.160585e-002,3.300000e+000,2.752458e-003
2.619369077031493e-008,3.300000e+000,9.520547e-003,3.300000e+000,2.285359e-003
2.719369077031493e-008,3.300000e+000,7.966471e-003,3.300000e+000,1.883265e-003
2.819369077031493e-008,3.300000e+000,6.786978e-003,3.300000e+000,1.543781e-003
2.919369077031493e-008,3.300000e+000,5.877323e-003,3.300000e+000,1.260892e-003
3.019369077031493e-008,3.300000e+000,5.165424e-003,3.300000e+000,1.027342e-003
3.119369077031493e-008,3.300000e+000,4.600707e-003,3.300000e+000,8.358194e-004
3.219369077031493e-008,3.300000e+000,4.146951e-003,3.300000e+000,6.795442e-004
3.319369077031494e-008,3.300000e+000,3.777837e-003,3.300000e+000,5.525040e-004
3.419369077031494e-008,3.300000e+000,3.473957e-003,3.300000e+000,4.495170e-004
3.519369077031494e-008,3.300000e+000,3.220847e-003,3.300000e+000,3.661991e-004
3.619369077031494e-008,3.300000e+000,3.007608e-003,3.300000e+000,2.988905e-004
3.719369077031495e-008,3.300000e+000,2.825956e-003,3.300000e+000,2.445650e-004
3.819369077031495e-008,3.300000e+000,2.669543e-003,3.300000e+000,2.007391e-004
3.919369077031495e-008,3.300000e+000,2.533465e-003,3.300000e+000,1.653854e-004
4.019369077031495e-008,3.300000e+000,2.413911e-003,3.300000e+000,1.368565e-004
4.119369077031496e-008,3.300000e+000,2.307894e-003,3.300000e+000,1.138186e-004
4.219369077031496e-008,3.300000e+000,2.213062e-003,3.300000e+000,9.519450e-005
4.319369077031496e-008,3.300000e+000,2.127547e-003,3.300000e+000,8.011634e-005
4.419369077031496e-008,3.300000e+000,2.049861e-003,3.300000e+000,6.788617e-005
4.519369077031496e-008,3.300000e+000,1.978804e-003,3.300000e+000,5.794344e-005
4.619369077031497e-008,3.300000e+000,1.913410e-003,3.300000e+000,4.983849e-005
4.719369077031497e-008,3.300000e+000,1.852889e-003,3.300000e+000,4.321086e-005
4.819369077031497e-008,3.300000e+000,1.796595e-003,3.300000e+000,3.777177e-005
4.919369077031497e-008,3.300000e+000,1.743997e-003,3.300000e+000,3.328995e-005
5.019369077031498e-008,3.300000e+000,1.694651e-003,3.300000e+000,2.958022e-005
5.119369077031498e-008,3.300000e+000,1.648067e-003,3.300000e+000,2.647202e-005
5.200000000000000e-008,3.300000e+000,1.612493e-003,3.300000e+000,2.435843e-005
5.300000000000000e-008,3.300000e+000,1.570068e-003,3.300000e+000,2.205042e-005
5.306816771760016e-008,3.300000e+000,1.524918e-003,3.225015e+000,2.567993e-005
5.320450315280048e-008,3.300000e+000,1.406874e-003,3.075047e+000,3.518786e-005
5.347717402320112e-008,3.300000e+000,1.129274e-003,2.775109e+000,5.673864e-005
5.391114845915769e-008,3.300000e+000,6.753264e-004,2.297737e+000,8.859327e-005
5.477909733107082e-008,3.300000e+000,-2.270794e-004,1.342993e+000,1.448240e-004
5.500000000000000e-008,3.300000e+000,-4.565238e-004,1.100000e+000,1.573916e-004
5.544180533785835e-008,3.300000e+000,-9.161006e-004,6.140141e-001,1.798232e-004
5.560214861278489e-008,3.300000e+000,-1.083351e-003,4.376365e-001,1.875361e-004
5.567931345014693e-008,3.300000e+000,-1.164095e-003,3.527552e-001,1.910703e-004
5.583364312487101e-008,3.300000e+000,-1.325987e-003,1.829926e-001,1.979607e-004
5.591155713867956e-008,3.300000e+000,-1.407868e-003,9.728715e-002,2.013753e-004
5.594717680096485e-008,3.300000e+000,-1.445361e-003,5.810552e-002,2.029132e-004
5.595875050849318e-008,3.300000e+000,-1.457553e-003,4.537444e-002,2.034094e-004
5.596952865898252e-008,3.300000e+000,-1.468913e-003,3.351847e-002,2.038699e-004
5.598182969901427e-008,3.300000e+000,-1.481880e-003,1.998733e-002,2.043943e-004
5.598720196670165e-008,3.300000e+000,-1.487545e-003,1.407784e-002,2.046230e-004
5.598925546462523e-008,3.300000e+000,-1.489710e-003,1.181899e-002,2.047103e-004
5.599336246047238e-008,3.300000e+000,-1.494042e-003,7.301293e-003,2.048848e-004
5.600000000000000e-008,3.300000e+000,-1.501043e-003,0.000000e+000,2.051665e-004
5.600066375395276e-008,3.300000e+000,-1.501734e-003,0.000000e+000,2.051938e-004
5.600199126185829e-008,3.300000e+000,-1.503093e-003,0.000000e+000,2.052464e-004
5.600464627766933e-008,3.300000e+000,-1.505713e-003,0.000000e+000,2.053424e-004
5.600995630929142e-008,3.300000e+000,-1.510621e-003,0.000000e+000,2.055041e-004
5.601774974455402e-008,3.300000e+000,-1.517130e-003,0.000000e+000,2.056781e-004
5.602876831682390e-008,3.300000e+000,-1.524972e-003,0.000000e+000,2.057999e-004
5.604811138420980e-008,3.300000e+000,-1.535554e-003,0.000000e+000,2.057246e-004
5.608679751898159e-008,3.300000e+000,-1.549193e-003,0.000000e+000,2.048974e-004
5.616416978852518e-008,3.300000e+000,-1.562767e-003,0.000000e+000,2.020499e-004
5.631891432761235e-008,3.300000e+000,-1.573528e-003,0.000000e+000,1.951229e-004
5.662840340578669e-008,3.300000e+000,-1.584174e-003,0.000000e+000,1.813166e-004
5.724738156213538e-008,3.300000e+000,-1.601172e-003,0.000000e+000,1.566895e-004
5.824738156213539e-008,3.300000e+000,-1.624493e-003,0.000000e+000,1.232328e-004
5.924738156213539e-008,3.300000e+000,-1.643400e-003,0.000000e+000,9.633100e-005
6.024738156213539e-008,3.300000e+000,-1.658424e-003,0.000000e+000,7.532146e-005
6.124738156213539e-008,3.300000e+000,-1.670499e-003,0.000000e+000,5.892018e-005
6.224738156213538e-008,3.300000e+000,-1.680376e-003,0.000000e+000,4.612483e-005
6.324738156213538e-008,3.300000e+000,-1.688645e-003,0.000000e+000,3.615121e-005
6.424738156213537e-008,3.300000e+000,-1.695786e-003,0.000000e+000,2.838708e-005
6.524738156213537e-008,3.300000e+000,-1.702177e-003,0.000000e+000,2.235334e-005
6.624738156213536e-008,3.300000e+000,-1.708130e-003,0.000000e+000,1.767593e-005
6.724738156213536e-008,3.300000e+000,-1.713894e-003,0.000000e+000,1.406211e-005
6.824738156213536e-008,3.300000e+000,-1.719678e-003,0.000000e+000,1.128335e-005
6.924738156213535e-008,3.300000e+000,-1.725653e-003,0.000000e+000,9.160856e-006
7.024738156213535e-008,3.300000e+000,-1.731966e-003,0.000000e+000,7.555097e-006
7.124738156213534e-008,3.300000e+000,-1.738744e-003,0.000000e+000,6.357000e-006
7.224738156213534e-008,3.300000e+000,-1.746097e-003,0.000000e+000,5.481560e-006
7.324738156213533e-008,3.300000e+000,-1.754128e-003,0.000000e+000,4.862454e-006
7.424738156213533e-008,3.300000e+000,-1.762929e-003,0.000000e+000,4.448150e-006
7.524738156213533e-008,3.300000e+000,-1.772592e-003,0.000000e+000,4.198622e-006
7.624738156213532e-008,3.300000e+000,-1.783203e-003,0.000000e+000,4.082980e-006
7.724738156213532e-008,3.300000e+000,-1.794852e-003,0.000000e+000,4.077475e-006
7.824738156213531e-008,3.300000e+000,-1.807631e-003,0.000000e+000,4.164060e-006
7.924738156213531e-008,3.300000e+000,-1.821634e-003,0.000000e+000,4.329186e-006
8.024738156213530e-008,3.300000e+000,-1.836964e-003,0.000000e+000,4.562940e-006
8.124738156213530e-008,3.300000e+000,-1.853731e-003,0.000000e+000,4.858327e-006
8.224738156213530e-008,3.300000e+000,-1.872054e-003,0.000000e+000,5.210768e-006
8.324738156213529e-008,3.300000e+000,-1.892066e-003,0.000000e+000,5.617694e-006
8.424738156213529e-008,3.300000e+000,-1.913911e-003,0.000000e+000,6.078264e-006
8.524738156213528e-008,3.300000e+000,-1.937753e-003,0.000000e+000,6.593165e-006
8.624738156213528e-008,3.300000e+000,-1.963773e-003,0.000000e+000,7.164485e-006
8.724738156213527e-008,3.300000e+000,-1.992175e-003,0.000000e+000,7.795642e-006
8.824738156213527e-008,3.300000e+000,-2.023190e-003,0.000000e+000,8.491375e-006
8.924738156213527e-008,3.300000e+000,-2.057079e-003,0.000000e+000,9.257781e-006
9.024738156213526e-008,3.300000e+000,-2.094138e-003,0.000000e+000,1.010240e-005
9.124738156213526e-008,3.300000e+000,-2.134704e-003,0.000000e+000,1.103433e-005
9.224738156213525e-008,3.300000e+000,-2.179164e-003,0.000000e+000,1.206444e-005
9.324738156213525e-008,3.300000e+000,-2.227959e-003,0.000000e+000,1.320553e-005
9.424738156213524e-008,3.300000e+000,-2.281592e-003,0.000000e+000,1.447269e-005
9.524738156213524e-008,3.300000e+000,-2.340647e-003,0.000000e+000,1.588356e-005
9.624738156213524e-008,3.300000e+000,-2.405791e-003,0.000000e+000,1.745879e-005
9.724738156213523e-008,3.300000e+000,-2.477795e-003,0.000000e+000,1.922245e-005
9.824738156213523e-008,3.300000e+000,-2.556987e-003,0.000000e+000,2.118685e-005
9.900000000000000e-008,3.300000e+000,-2.622716e-003,0.000000e+000,2.283933e-005
1.000000000000000e-007,3.300000e+000,-2.716475e-003,0.000000e+000,2.521869e-005
1.000664910333832e-007,3.226860e+000,-2.924129e-003,0.000000e+000,4.326151e-005
1.001994731001496e-007,3.080580e+000,-3.526908e-003,0.000000e+000,9.550677e-005
1.003124252397472e-007,2.956332e+000,-4.236512e-003,0.000000e+000,1.562615e-004
1.004511833211001e-007,2.803698e+000,-5.279864e-003,0.000000e+000,2.439918e-004
1.005455301084254e-007,2.699917e+000,-6.037448e-003,0.000000e+000,3.062080e-004
1.006562127244250e-007,2.578166e+000,-6.953995e-003,0.000000e+000,3.797745e-004
1.007209994521087e-007,2.506901e+000,-7.497425e-003,0.000000e+000,4.224619e-004
1.008107507273348e-007,2.408174e+000,-8.256737e-003,0.000000e+000,4.807007e-004
1.009345287327823e-007,2.272018e+000,-9.309314e-003,0.000000e+000,5.597258e-004
1.009996982473217e-007,2.200332e+000,-9.865753e-003,0.000000e+000,6.006784e-004
1.010396021972801e-007,2.156438e+000,-1.020751e-002,0.000000e+000,6.254087e-004
1.010810364452635e-007,2.110860e+000,-1.056305e-002,0.000000e+000,6.508358e-004
1.011218418895831e-007,2.065974e+000,-1.091376e-002,0.000000e+000,6.756588e-004
1.011660421143387e-007,2.017354e+000,-1.129446e-002,0.000000e+000,7.022464e-004
1.012544425638500e-007,1.920113e+000,-1.205736e-002,0.000000e+000,7.548722e-004
1.012804020422392e-007,1.891558e+000,-1.228181e-002,0.000000e+000,7.701918e-004
1.012989419717702e-007,1.871164e+000,-1.244231e-002,0.000000e+000,7.810013e-004
1.014239419717702e-007,1.733664e+000,-1.352371e-002,0.000000e+000,8.510491e-004
1.015489419717702e-007,1.596164e+000,-1.461028e-002,0.000000e+000,9.198526e-004
1.016739419717701e-007,1.458664e+000,-1.570930e-002,0.000000e+000,9.874039e-004
1.019239419717702e-007,1.183664e+000,-1.793719e-002,0.000000e+000,1.120781e-003
1.020582656742469e-007,1.035908e+000,-1.915034e-002,0.000000e+000,1.190920e-003
1.022390274430806e-007,8.370698e-001,-2.080894e-002,0.000000e+000,1.283039e-003
