time,V(n010),V(n011),V(n014),I(Rchip2)
0.000000000000000e+000,3.300000e+000,2.286509e-002,0.000000e+000,-2.640918e-038
9.999999824516700e-015,3.300000e+000,2.286509e-002,1.100000e-005,-1.697147e-013
1.999999964903340e-014,3.300000e+000,2.286509e-002,2.200000e-005,-4.525351e-013
3.999999929806680e-014,3.300000e+000,2.286509e-002,4.400000e-005,-1.493143e-012
7.999999859613360e-014,3.300000e+000,2.286509e-002,8.800000e-005,-5.564039e-012
1.599999971922672e-013,3.300000e+000,2.286509e-002,1.760000e-004,-2.184190e-011
3.199999943845344e-013,3.300000e+000,2.286509e-002,3.520000e-004,-8.691742e-011
6.399999887690688e-013,3.300000e+000,2.286510e-002,7.040000e-004,-3.469766e-010
1.279999977538138e-012,3.300000e+000,2.286511e-002,1.408000e-003,-1.385638e-009
2.559999955076275e-012,3.300000e+000,2.286515e-002,2.816000e-003,-5.530881e-009
5.119999910152551e-012,3.300000e+000,2.286534e-002,5.632000e-003,-2.205792e-008
1.023999982030510e-011,3.300000e+000,2.286598e-002,1.126400e-002,-8.089163e-008
1.637203885163022e-011,3.300000e+000,2.286710e-002,1.800924e-002,-1.822380e-007
1.752455269241853e-011,3.300000e+000,2.286737e-002,1.927701e-002,-2.070450e-007
1.982958037399517e-011,3.300000e+000,2.286801e-002,2.181254e-002,-2.643436e-007
2.083802998468495e-011,3.300000e+000,2.286830e-002,2.292183e-002,-2.913958e-007
2.146057316650725e-011,3.300000e+000,2.286850e-002,2.360663e-002,-3.088545e-007
2.146067868230078e-011,3.300000e+000,2.286850e-002,2.360675e-002,-3.088575e-007
2.146070066475777e-011,3.300000e+000,2.286850e-002,2.360677e-002,-3.088581e-007
2.146070945774056e-011,3.300000e+000,2.286850e-002,2.360678e-002,-3.088584e-007
2.146071165598626e-011,3.300000e+000,2.286850e-002,2.360678e-002,-3.088584e-007
2.146071605247766e-011,3.300000e+000,2.286850e-002,2.360679e-002,-3.088585e-007
2.146072484546045e-011,3.300000e+000,2.286850e-002,2.360680e-002,-3.088594e-007
1.464607248454605e-010,3.300000e+000,2.310886e-002,1.611068e-001,-2.146046e-005
1.484138498454605e-010,3.300000e+000,2.311265e-002,1.632552e-001,-2.179452e-005
1.523200998454605e-010,3.300000e+000,2.312044e-002,1.675521e-001,-2.247962e-005
1.601325998454605e-010,3.300000e+000,2.313673e-002,1.761459e-001,-2.391170e-005
1.757575998454605e-010,3.300000e+000,2.317216e-002,1.933334e-001,-2.702437e-005
2.070075998454605e-010,3.300000e+000,2.325416e-002,2.277084e-001,-3.420674e-005
2.695075998454605e-010,3.300000e+000,2.345650e-002,2.964584e-001,-5.181786e-005
3.717113372356573e-010,3.300000e+000,2.384509e-002,4.088825e-001,-8.545803e-005
3.757326608222018e-010,3.300000e+000,2.386234e-002,4.133059e-001,-8.694360e-005
3.837753079952909e-010,3.300000e+000,2.389962e-002,4.221528e-001,-9.014462e-005
3.998606023414690e-010,3.300000e+000,2.397657e-002,4.398467e-001,-9.673797e-005
4.320311910338252e-010,3.300000e+000,2.413758e-002,4.752343e-001,-1.104915e-004
4.650451142877369e-010,3.300000e+000,2.431429e-002,5.115497e-001,-1.255082e-004
5.290031198240506e-010,3.300000e+000,2.468661e-002,5.819035e-001,-1.569185e-004
6.030681018463171e-010,3.300000e+000,2.516461e-002,6.633749e-001,-1.968030e-004
7.244503193529189e-010,3.300000e+000,2.603550e-002,7.968953e-001,-2.685365e-004
8.177117738423432e-010,3.300000e+000,2.677105e-002,8.994830e-001,-3.282866e-004
9.031668332679259e-010,3.300000e+000,2.750694e-002,9.934835e-001,-3.871492e-004
1.013002953858400e-009,3.300000e+000,2.852475e-002,1.114303e+000,-4.672925e-004
1.128010464181460e-009,3.300000e+000,2.966548e-002,1.240811e+000,-5.555793e-004
1.251932542563072e-009,3.300000e+000,3.098221e-002,1.377126e+000,-6.554157e-004
1.413175313741547e-009,3.300000e+000,3.282562e-002,1.554493e+000,-7.915343e-004
1.654753552220733e-009,3.300000e+000,3.582126e-002,1.820229e+000,-1.004969e-003
1.983006939472678e-009,3.300000e+000,4.030459e-002,2.181308e+000,-1.307911e-003
2.509412692682946e-009,3.300000e+000,4.824784e-002,2.760354e+000,-1.810812e-003
3.000000000000000e-009,3.300000e+000,5.620721e-002,3.300000e+000,-2.288722e-003
3.000766542667683e-009,3.300000e+000,5.622056e-002,3.300000e+000,-2.289478e-003
3.002299628003049e-009,3.300000e+000,5.624723e-002,3.300000e+000,-2.290986e-003
3.005365798673780e-009,3.300000e+000,5.630047e-002,3.300000e+000,-2.293993e-003
3.011498140015244e-009,3.300000e+000,5.640652e-002,3.300000e+000,-2.299959e-003
3.023762822698170e-009,3.300000e+000,5.661775e-002,3.300000e+000,-2.311790e-003
3.026828993368901e-009,3.300000e+000,5.667030e-002,3.300000e+000,-2.314720e-003
3.032961334710365e-009,3.300000e+000,5.677483e-002,3.300000e+000,-2.320513e-003
3.045226017393291e-009,3.300000e+000,5.698233e-002,3.300000e+000,-2.331926e-003
3.069755382759143e-009,3.300000e+000,5.739393e-002,3.300000e+000,-2.354367e-003
3.075887724100606e-009,3.300000e+000,5.749587e-002,3.300000e+000,-2.359869e-003
3.088152406783533e-009,3.300000e+000,5.769758e-002,3.300000e+000,-2.370629e-003
3.112681772149385e-009,3.300000e+000,5.809789e-002,3.300000e+000,-2.391801e-003
3.118814113490848e-009,3.300000e+000,5.819706e-002,3.300000e+000,-2.396991e-003
3.131078796173775e-009,3.300000e+000,5.839334e-002,3.300000e+000,-2.407141e-003
3.155608161539627e-009,3.300000e+000,5.878054e-002,3.300000e+000,-2.426838e-003
3.204666892271333e-009,3.300000e+000,5.954313e-002,3.300000e+000,-2.464906e-003
3.216931574954259e-009,3.300000e+000,5.973053e-002,3.300000e+000,-2.474057e-003
3.241460940320112e-009,3.300000e+000,6.009807e-002,3.300000e+000,-2.491547e-003
3.290519671051817e-009,3.300000e+000,6.082305e-002,3.300000e+000,-2.525392e-003
3.302784353734743e-009,3.300000e+000,6.100137e-002,3.300000e+000,-2.533526e-003
3.327313719100596e-009,3.300000e+000,6.135153e-002,3.300000e+000,-2.549067e-003
3.413166497881080e-009,3.300000e+000,6.254756e-002,3.300000e+000,-2.600152e-003
3.462225228612786e-009,3.300000e+000,6.320211e-002,3.300000e+000,-2.626113e-003
3.560342690076197e-009,3.300000e+000,6.447969e-002,3.300000e+000,-2.674518e-003
3.584872055442049e-009,3.300000e+000,6.479065e-002,3.300000e+000,-2.685679e-003
3.633930786173755e-009,3.300000e+000,6.539447e-002,3.300000e+000,-2.705986e-003
3.732048247637166e-009,3.300000e+000,6.657789e-002,3.300000e+000,-2.743909e-003
3.805636343734723e-009,3.300000e+000,6.743048e-002,3.300000e+000,-2.768477e-003
3.903753805198134e-009,3.300000e+000,6.853803e-002,3.300000e+000,-2.798002e-003
4.099988728124956e-009,3.300000e+000,7.064392e-002,3.300000e+000,-2.845050e-003
4.247164920320072e-009,3.300000e+000,7.214546e-002,3.300000e+000,-2.871841e-003
4.443399843246893e-009,3.300000e+000,7.406746e-002,3.300000e+000,-2.898923e-003
4.590576035442009e-009,3.300000e+000,7.545770e-002,3.300000e+000,-2.913773e-003
4.664164131539567e-009,3.300000e+000,7.613848e-002,3.300000e+000,-2.919691e-003
4.762281593002978e-009,3.300000e+000,7.703590e-002,3.300000e+000,-2.926512e-003
4.848134371783462e-009,3.300000e+000,7.781022e-002,3.300000e+000,-2.931354e-003
4.933987150563946e-009,3.300000e+000,7.857510e-002,3.300000e+000,-2.935235e-003
4.958516515929798e-009,3.300000e+000,7.879187e-002,3.300000e+000,-2.936166e-003
5.007575246661504e-009,3.300000e+000,7.922317e-002,3.300000e+000,-2.937805e-003
5.105692708124915e-009,3.300000e+000,8.007739e-002,3.300000e+000,-2.940263e-003
5.301927631051736e-009,3.300000e+000,8.175782e-002,3.300000e+000,-2.942520e-003
5.694397476905379e-009,3.300000e+000,8.503605e-002,3.300000e+000,-2.939772e-003
6.479337168612666e-009,3.300000e+000,9.140687e-002,3.300000e+000,-2.920089e-003
7.479337168612667e-009,3.300000e+000,9.930917e-002,3.300000e+000,-2.882572e-003
8.479337168612667e-009,3.300000e+000,1.070288e-001,3.300000e+000,-2.838611e-003
9.479337168612668e-009,3.300000e+000,1.145839e-001,3.300000e+000,-2.791553e-003
1.047933716861267e-008,3.300000e+000,1.219455e-001,3.300000e+000,-2.739783e-003
1.147933716861267e-008,3.300000e+000,1.289846e-001,3.300000e+000,-2.674017e-003
1.247933716861267e-008,3.300000e+000,1.353328e-001,3.300000e+000,-2.567853e-003
1.347933716861267e-008,3.300000e+000,1.400833e-001,3.300000e+000,-2.357684e-003
1.447933716861267e-008,3.300000e+000,1.414052e-001,3.300000e+000,-1.920229e-003
1.547933716861267e-008,3.300000e+000,1.366072e-001,3.300000e+000,-1.091473e-003
1.647933716861267e-008,3.300000e+000,1.234640e-001,3.300000e+000,2.173061e-004
1.747933716861267e-008,3.300000e+000,1.025306e-001,3.300000e+000,1.850775e-003
1.847933716861267e-008,3.300000e+000,7.818746e-002,3.300000e+000,3.381742e-003
1.947933716861267e-008,3.300000e+000,5.622847e-002,3.300000e+000,4.367867e-003
2.047933716861267e-008,3.300000e+000,3.989717e-002,3.300000e+000,4.673945e-003
2.147933716861267e-008,3.300000e+000,2.891208e-002,3.300000e+000,4.479459e-003
2.247933716861267e-008,3.300000e+000,2.161105e-002,3.300000e+000,4.033535e-003
2.347933716861266e-008,3.300000e+000,1.663918e-002,3.300000e+000,3.503131e-003
2.447933716861266e-008,3.300000e+000,1.315791e-002,3.300000e+000,2.975174e-003
2.547933716861266e-008,3.300000e+000,1.065622e-002,3.300000e+000,2.490198e-003
2.647933716861266e-008,3.300000e+000,8.816816e-003,3.300000e+000,2.063809e-003
2.747933716861266e-008,3.300000e+000,7.436294e-003,3.300000e+000,1.698854e-003
2.847933716861266e-008,3.300000e+000,6.381702e-003,3.300000e+000,1.391856e-003
2.947933716861266e-008,3.300000e+000,5.563405e-003,3.300000e+000,1.136659e-003
3.047933716861266e-008,3.300000e+000,4.919274e-003,3.300000e+000,9.263110e-004
3.147933716861266e-008,3.300000e+000,4.405428e-003,3.300000e+000,7.539982e-004
3.247933716861266e-008,3.300000e+000,3.990266e-003,3.300000e+000,6.134899e-004
3.347933716861267e-008,3.300000e+000,3.650705e-003,3.300000e+000,4.993073e-004
3.447933716861267e-008,3.300000e+000,3.369655e-003,3.300000e+000,4.067533e-004
3.547933716861267e-008,3.300000e+000,3.134324e-003,3.300000e+000,3.318684e-004
3.647933716861267e-008,3.300000e+000,2.935038e-003,3.300000e+000,2.713555e-004
3.747933716861267e-008,3.300000e+000,2.764423e-003,3.300000e+000,2.224931e-004
3.847933716861268e-008,3.300000e+000,2.616804e-003,3.300000e+000,1.830505e-004
3.947933716861268e-008,3.300000e+000,2.487789e-003,3.300000e+000,1.512084e-004
4.047933716861268e-008,3.300000e+000,2.373950e-003,3.300000e+000,1.254898e-004
4.147933716861268e-008,3.300000e+000,2.272595e-003,3.300000e+000,1.046987e-004
4.247933716861269e-008,3.300000e+000,2.181594e-003,3.300000e+000,8.786985e-005
4.347933716861269e-008,3.300000e+000,2.099256e-003,3.300000e+000,7.422568e-005
4.447933716861269e-008,3.300000e+000,2.024224e-003,3.300000e+000,6.314077e-005
4.547933716861269e-008,3.300000e+000,1.955403e-003,3.300000e+000,5.411277e-005
4.647933716861270e-008,3.300000e+000,1.891909e-003,3.300000e+000,4.673865e-005
4.747933716861270e-008,3.300000e+000,1.833015e-003,3.300000e+000,4.069521e-005
4.847933716861270e-008,3.300000e+000,1.778126e-003,3.300000e+000,3.572346e-005
4.947933716861270e-008,3.300000e+000,1.726750e-003,3.300000e+000,3.161588e-005
5.047933716861270e-008,3.300000e+000,1.678475e-003,3.300000e+000,2.820617e-005
5.147933716861271e-008,3.300000e+000,1.632671e-003,3.300000e+000,2.530974e-005
5.200000000000000e-008,3.300000e+000,1.609971e-003,3.300000e+000,2.401830e-005
5.300000000000000e-008,3.300000e+000,1.567863e-003,3.300000e+000,2.180266e-005
5.306899393580060e-008,3.300000e+000,1.523438e-003,3.224107e+000,2.536661e-005
5.320698180740178e-008,3.300000e+000,1.405905e-003,3.072320e+000,3.482598e-005
5.348295755060417e-008,3.300000e+000,1.126559e-003,2.768747e+000,5.650615e-005
5.392460701495493e-008,3.300000e+000,6.651201e-004,2.282932e+000,8.885194e-005
5.480790594365646e-008,3.300000e+000,-2.526065e-004,1.311303e+000,1.459864e-004
5.500000000000000e-008,3.300000e+000,-4.519661e-004,1.100000e+000,1.569347e-004
5.538418811268707e-008,3.300000e+000,-8.519350e-004,6.773931e-001,1.760912e-004
5.600000000000000e-008,3.300000e+000,-1.495792e-003,0.000000e+000,2.047354e-004
5.600140004506487e-008,3.300000e+000,-1.497227e-003,0.000000e+000,2.047912e-004
5.600420013519461e-008,3.300000e+000,-1.500015e-003,0.000000e+000,2.048950e-004
5.600980031545408e-008,3.300000e+000,-1.505307e-003,0.000000e+000,2.050768e-004
5.601509518338740e-008,3.300000e+000,-1.509963e-003,0.000000e+000,2.052169e-004
5.602159921701777e-008,3.300000e+000,-1.515155e-003,0.000000e+000,2.053408e-004
5.603161841632734e-008,3.300000e+000,-1.522096e-003,0.000000e+000,2.054353e-004
5.605165681494647e-008,3.300000e+000,-1.533007e-003,0.000000e+000,2.053544e-004
5.609173361218472e-008,3.300000e+000,-1.547395e-003,0.000000e+000,2.045249e-004
5.617188720666123e-008,3.300000e+000,-1.562022e-003,0.000000e+000,2.016351e-004
5.633219439561426e-008,3.300000e+000,-1.573743e-003,0.000000e+000,1.945350e-004
5.665280877352030e-008,3.300000e+000,-1.584960e-003,0.000000e+000,1.803279e-004
5.729403752933238e-008,3.300000e+000,-1.602436e-003,0.000000e+000,1.550045e-004
5.829403752933238e-008,3.300000e+000,-1.625529e-003,0.000000e+000,1.218649e-004
5.929403752933239e-008,3.300000e+000,-1.644220e-003,0.000000e+000,9.526132e-005
6.029403752933238e-008,3.300000e+000,-1.659073e-003,0.000000e+000,7.448481e-005
6.129403752933238e-008,3.300000e+000,-1.671010e-003,0.000000e+000,5.826560e-005
6.229403752933237e-008,3.300000e+000,-1.680778e-003,0.000000e+000,4.561252e-005
6.329403752933237e-008,3.300000e+000,-1.688959e-003,0.000000e+000,3.575010e-005
6.429403752933236e-008,3.300000e+000,-1.696028e-003,0.000000e+000,2.807289e-005
6.529403752933236e-008,3.300000e+000,-1.702362e-003,0.000000e+000,2.210710e-005
6.629403752933236e-008,3.300000e+000,-1.708267e-003,0.000000e+000,1.748280e-005
6.729403752933235e-008,3.300000e+000,-1.713992e-003,0.000000e+000,1.391051e-005
6.829403752933235e-008,3.300000e+000,-1.719743e-003,0.000000e+000,1.116420e-005
6.929403752933234e-008,3.300000e+000,-1.725690e-003,0.000000e+000,9.067080e-006
7.029403752933234e-008,3.300000e+000,-1.731980e-003,0.000000e+000,7.481137e-006
7.129403752933233e-008,3.300000e+000,-1.738736e-003,0.000000e+000,6.298517e-006
7.229403752933233e-008,3.300000e+000,-1.746070e-003,0.000000e+000,5.435145e-006
7.329403752933233e-008,3.300000e+000,-1.754083e-003,0.000000e+000,4.825443e-006
7.429403752933232e-008,3.300000e+000,-1.762868e-003,0.000000e+000,4.418444e-006
7.529403752933232e-008,3.300000e+000,-1.772514e-003,0.000000e+000,4.174576e-006
7.629403752933231e-008,3.300000e+000,-1.783109e-003,0.000000e+000,4.063293e-006
7.729403752933231e-008,3.300000e+000,-1.794741e-003,0.000000e+000,4.061122e-006
7.829403752933230e-008,3.300000e+000,-1.807502e-003,0.000000e+000,4.150224e-006
7.929403752933230e-008,3.300000e+000,-1.821488e-003,0.000000e+000,4.317219e-006
8.029403752933230e-008,3.300000e+000,-1.836799e-003,0.000000e+000,4.552313e-006
8.129403752933229e-008,3.300000e+000,-1.853545e-003,0.000000e+000,4.848613e-006
8.229403752933229e-008,3.300000e+000,-1.871846e-003,0.000000e+000,5.201611e-006
8.329403752933228e-008,3.300000e+000,-1.891832e-003,0.000000e+000,5.608791e-006
8.429403752933228e-008,3.300000e+000,-1.913650e-003,0.000000e+000,6.069351e-006
8.529403752933227e-008,3.300000e+000,-1.937462e-003,0.000000e+000,6.584003e-006
8.629403752933227e-008,3.300000e+000,-1.963448e-003,0.000000e+000,7.154846e-006
8.729403752933227e-008,3.300000e+000,-1.991812e-003,0.000000e+000,7.785305e-006
8.829403752933226e-008,3.300000e+000,-2.022784e-003,0.000000e+000,8.480111e-006
8.929403752933226e-008,3.300000e+000,-2.056625e-003,0.000000e+000,9.245348e-006
9.029403752933225e-008,3.300000e+000,-2.093629e-003,0.000000e+000,1.008853e-005
9.129403752933225e-008,3.300000e+000,-2.134133e-003,0.000000e+000,1.101872e-005
9.229403752933224e-008,3.300000e+000,-2.178520e-003,0.000000e+000,1.204673e-005
9.329403752933224e-008,3.300000e+000,-2.227231e-003,0.000000e+000,1.318532e-005
9.429403752933224e-008,3.300000e+000,-2.280768e-003,0.000000e+000,1.444949e-005
9.529403752933223e-008,3.300000e+000,-2.339710e-003,0.000000e+000,1.585678e-005
9.629403752933223e-008,3.300000e+000,-2.404722e-003,0.000000e+000,1.742772e-005
9.729403752933222e-008,3.300000e+000,-2.476572e-003,0.000000e+000,1.918622e-005
9.829403752933222e-008,3.300000e+000,-2.555478e-003,0.000000e+000,2.114154e-005
9.900000000000000e-008,3.300000e+000,-2.616827e-003,0.000000e+000,2.268195e-005
1.000000000000000e-007,3.300000e+000,-2.709994e-003,0.000000e+000,2.504289e-005
1.000665526780379e-007,3.226792e+000,-2.902326e-003,0.000000e+000,4.172538e-005
1.001996580341137e-007,3.080376e+000,-3.464749e-003,0.000000e+000,9.042637e-005
1.003126432398350e-007,2.956092e+000,-4.133475e-003,0.000000e+000,1.476672e-004
1.004514278188287e-007,2.803429e+000,-5.132956e-003,0.000000e+000,2.314527e-004
1.006047820751765e-007,2.634740e+000,-6.327798e-003,0.000000e+000,3.286990e-004
1.007717230983565e-007,2.451105e+000,-7.679039e-003,0.000000e+000,4.348727e-004
1.009322450198540e-007,2.274530e+000,-9.001905e-003,0.000000e+000,5.347594e-004
1.011127052784727e-007,2.076024e+000,-1.050643e-002,0.000000e+000,6.424657e-004
1.014736257957100e-007,1.679012e+000,-1.355219e-002,0.000000e+000,8.460276e-004
1.018992721141441e-007,1.210801e+000,-1.719588e-002,0.000000e+000,1.073098e-003
1.020969899876979e-007,9.933110e-001,-1.891541e-002,0.000000e+000,1.173828e-003
1.021718369214511e-007,9.109794e-001,-1.957451e-002,0.000000e+000,1.210779e-003
1.022473584708810e-007,8.279057e-001,-2.024364e-002,0.000000e+000,1.247493e-003
1.022871133213079e-007,7.841753e-001,-2.059730e-002,0.000000e+000,1.266647e-003
1.023380903773722e-007,7.281006e-001,-2.105233e-002,0.000000e+000,1.291040e-003
1.023633149577388e-007,7.003536e-001,-2.127803e-002,0.000000e+000,1.303056e-003
1.023796919622287e-007,6.823388e-001,-2.142483e-002,0.000000e+000,1.310832e-003
1.023847665923331e-007,6.767567e-001,-2.147036e-002,0.000000e+000,1.313238e-003
1.023870409506931e-007,6.742550e-001,-2.146225e-002,0.000000e+000,1.312005e-003
1.030000000000000e-007,0.000000e+000,-1.156343e-002,0.000000e+000,3.550867e-004
1.032000000000000e-007,0.000000e+000,-9.928476e-003,0.000000e+000,1.957464e-004
1.033000000000000e-007,0.000000e+000,-1.022968e-002,0.000000e+000,2.059764e-004
1.043000000000000e-007,0.000000e+000,-2.164638e-002,0.000000e+000,9.404856e-004
1.053000000000000e-007,0.000000e+000,-2.717060e-002,0.000000e+000,1.144357e-003
1.063000000000000e-007,0.000000e+000,-2.838906e-002,0.000000e+000,9.955799e-004
1.073000000000000e-007,0.000000e+000,-2.911496e-002,0.000000e+000,8.398225e-004
1.083000000000000e-007,0.000000e+000,-3.061231e-002,0.000000e+000,7.715729e-004
1.093000000000000e-007,0.000000e+000,-3.439905e-002,0.000000e+000,8.994811e-004
1.102133917012370e-007,0.000000e+000,-3.977556e-002,0.000000e+000,1.144798e-003
1.112133917012369e-007,0.000000e+000,-4.404947e-002,0.000000e+000,1.223126e-003
1.122133917012369e-007,0.000000e+000,-4.452803e-002,0.000000e+000,9.795190e-004
1.132133917012369e-007,0.000000e+000,-4.268685e-002,0.000000e+000,6.055289e-004
1.142133917012369e-007,0.000000e+000,-4.012149e-002,0.000000e+000,2.595508e-004
1.152133917012369e-007,0.000000e+000,-3.739858e-002,0.000000e+000,-1.930419e-005
1.162133917012369e-007,0.000000e+000,-3.445840e-002,0.000000e+000,-2.513192e-004
1.172133917012369e-007,0.000000e+000,-3.088237e-002,0.000000e+000,-4.809629e-004
1.182133917012369e-007,0.000000e+000,-2.627453e-002,0.000000e+000,-7.406264e-004
1.192133917012369e-007,0.000000e+000,-2.051495e-002,0.000000e+000,-1.033032e-003
1.202133917012369e-007,0.000000e+000,-1.374186e-002,0.000000e+000,-1.339512e-003
1.212133917012369e-007,0.000000e+000,-6.184604e-003,0.000000e+000,-1.638374e-003
1.222133917012369e-007,0.000000e+000,1.946565e-003,0.000000e+000,-1.914465e-003
1.232133917012369e-007,0.000000e+000,1.047740e-002,0.000000e+000,-2.159023e-003
1.242133917012369e-007,0.000000e+000,1.928000e-002,0.000000e+000,-2.369035e-003
1.252133917012369e-007,0.000000e+000,2.828100e-002,0.000000e+000,-2.546567e-003
1.262133917012369e-007,0.000000e+000,3.743876e-002,0.000000e+000,-2.695762e-003
1.272133917012369e-007,0.000000e+000,4.672395e-002,0.000000e+000,-2.820796e-003
1.282133917012369e-007,0.000000e+000,5.611192e-002,0.000000e+000,-2.925258e-003
